# GHz S RI R 50

1.000000000000000e-09 -2.5066210366336397e-02  1.9536044893710705e-02 -1.4350812181792918e+01  1.3937075498018636e-01  4.0650618388629101e-02  9.8806959265528953e-03 -7.6563813896364297e-02  1.4106451708342113e-02
2.000000000000000e-09 -2.5066210149755339e-02  1.9536044797716118e-02 -1.4350812177728102e+01  1.3937078538686443e-01  4.0650618572299013e-02  9.8806956799838298e-03 -7.6563813952693405e-02  1.4106451782801829e-02
3.000000000000000e-09 -2.5066209933174273e-02  1.9536044701721517e-02 -1.4350812173663272e+01  1.3937081579354427e-01  4.0650618755968926e-02  9.8806954334147660e-03 -7.6563814009022568e-02  1.4106451857261545e-02
4.000000000000000e-09 -2.5066209716593221e-02  1.9536044605726929e-02 -1.4350812169598456e+01  1.3937084620022588e-01  4.0650618939638838e-02  9.8806951868457005e-03 -7.6563814065351676e-02  1.4106451931721276e-02
5.000000000000000e-09 -2.5066209500012163e-02  1.9536044509732342e-02 -1.4350812165533625e+01  1.3937087660690572e-01  4.0650619123308751e-02  9.8806949402766367e-03 -7.6563814121680784e-02  1.4106452006181006e-02
6.000000000000001e-09 -2.5066209283431097e-02  1.9536044413737741e-02 -1.4350812161468809e+01  1.3937090701358379e-01  4.0650619306978719e-02  9.8806946937075677e-03 -7.6563814178009948e-02  1.4106452080640736e-02
7.000000000000001e-09 -2.5066209066850031e-02  1.9536044317743168e-02 -1.4350812157403979e+01  1.3937093742026541e-01  4.0650619490648632e-02  9.8806944471385022e-03 -7.6563814234339056e-02  1.4106452155100452e-02
8.000000000000000e-09 -2.5066208850268966e-02  1.9536044221748580e-02 -1.4350812153339163e+01  1.3937096782694525e-01  4.0650619674318544e-02  9.8806942005694384e-03 -7.6563814290668164e-02  1.4106452229560182e-02
9.000000000000001e-09 -2.5066208633687907e-02  1.9536044125753979e-02 -1.4350812149274333e+01  1.3937099823362331e-01  4.0650619857988457e-02  9.8806939540003729e-03 -7.6563814346997328e-02  1.4106452304019898e-02
1.000000000000000e-08 -2.5066208417106856e-02  1.9536044029759392e-02 -1.4350812145209531e+01  1.3937102864030493e-01  4.0650620041658370e-02  9.8806937074313039e-03 -7.6563814403326436e-02  1.4106452378479628e-02
1.100000000000000e-08 -2.5066208200525790e-02  1.9536043933764805e-02 -1.4350812141144715e+01  1.3937105904698477e-01  4.0650620225328282e-02  9.8806934608622384e-03 -7.6563814459655544e-02  1.4106452452939344e-02
1.200000000000000e-08 -2.5066207983944724e-02  1.9536043837770203e-02 -1.4350812137079885e+01  1.3937108945366283e-01  4.0650620408998250e-02  9.8806932142931746e-03 -7.6563814515984707e-02  1.4106452527399088e-02
1.300000000000000e-08 -2.5066207767363659e-02  1.9536043741775616e-02 -1.4350812133015069e+01  1.3937111986034445e-01  4.0650620592668107e-02  9.8806929677241091e-03 -7.6563814572313815e-02  1.4106452601858804e-02
1.400000000000000e-08 -2.5066207550782600e-02  1.9536043645781043e-02 -1.4350812128950238e+01  1.3937115026702429e-01  4.0650620776338020e-02  9.8806927211550401e-03 -7.6563814628642868e-02  1.4106452676318534e-02
1.500000000000000e-08 -2.5066207334201535e-02  1.9536043549786442e-02 -1.4350812124885422e+01  1.3937118067370413e-01  4.0650620960007933e-02  9.8806924745859764e-03 -7.6563814684972087e-02  1.4106452750778251e-02
1.600000000000000e-08 -2.5066207117620469e-02  1.9536043453791854e-02 -1.4350812120820592e+01  1.3937121108038220e-01  4.0650621143677901e-02  9.8806922280169109e-03 -7.6563814741301139e-02  1.4106452825237981e-02
1.700000000000000e-08 -2.5066206901039417e-02  1.9536043357797267e-02 -1.4350812116755776e+01  1.3937124148706381e-01  4.0650621327347813e-02  9.8806919814478453e-03 -7.6563814797630247e-02  1.4106452899697697e-02
1.800000000000000e-08 -2.5066206684458359e-02  1.9536043261802680e-02 -1.4350812112690946e+01  1.3937127189374365e-01  4.0650621511017726e-02  9.8806917348787816e-03 -7.6563814853959411e-02  1.4106452974157427e-02
1.900000000000000e-08 -2.5066206467877293e-02  1.9536043165808079e-02 -1.4350812108626130e+01  1.3937130230042172e-01  4.0650621694687639e-02  9.8806914883097126e-03 -7.6563814910288519e-02  1.4106453048617143e-02
2.000000000000000e-08 -2.5066206251296227e-02  1.9536043069813491e-02 -1.4350812104561314e+01  1.3937133270710333e-01  4.0650621878357607e-02  9.8806912417406471e-03 -7.6563814966617627e-02  1.4106453123076887e-02
2.100000000000000e-08 -2.5066206034715169e-02  1.9536042973818918e-02 -1.4350812100496483e+01  1.3937136311378318e-01  4.0650622062027519e-02  9.8806909951715833e-03 -7.6563815022946791e-02  1.4106453197536603e-02
2.200000000000000e-08 -2.5066205818134103e-02  1.9536042877824317e-02 -1.4350812096431667e+01  1.3937139352046302e-01  4.0650622245697432e-02  9.8806907486025178e-03 -7.6563815079275899e-02  1.4106453271996333e-02
2.300000000000000e-08 -2.5066205601553052e-02  1.9536042781829729e-02 -1.4350812092366837e+01  1.3937142392714286e-01  4.0650622429367345e-02  9.8806905020334488e-03 -7.6563815135605007e-02  1.4106453346456049e-02
2.400000000000000e-08 -2.5066205384971986e-02  1.9536042685835142e-02 -1.4350812088302021e+01  1.3937145433382270e-01  4.0650622613037257e-02  9.8806902554643850e-03 -7.6563815191934170e-02  1.4106453420915765e-02
2.500000000000000e-08 -2.5066205168390927e-02  1.9536042589840541e-02 -1.4350812084237191e+01  1.3937148474050254e-01  4.0650622796707225e-02  9.8806900088953195e-03 -7.6563815248263278e-02  1.4106453495375496e-02
2.600000000000000e-08 -2.5066204951809862e-02  1.9536042493845954e-02 -1.4350812080172375e+01  1.3937151514718238e-01  4.0650622980377138e-02  9.8806897623262540e-03 -7.6563815304592386e-02  1.4106453569835226e-02
2.700000000000000e-08 -2.5066204735228796e-02  1.9536042397851366e-02 -1.4350812076107545e+01  1.3937154555386222e-01  4.0650623164047051e-02  9.8806895157571902e-03 -7.6563815360921550e-02  1.4106453644294956e-02
2.800000000000000e-08 -2.5066204518647731e-02  1.9536042301856779e-02 -1.4350812072042729e+01  1.3937157596054206e-01  4.0650623347716963e-02  9.8806892691881212e-03 -7.6563815417250658e-02  1.4106453718754672e-02
2.900000000000000e-08 -2.5066204302066679e-02  1.9536042205862192e-02 -1.4350812067977913e+01  1.3937160636722190e-01  4.0650623531386876e-02  9.8806890226190557e-03 -7.6563815473579711e-02  1.4106453793214402e-02
3.000000000000000e-08 -2.5066204085485620e-02  1.9536042109867605e-02 -1.4350812063913082e+01  1.3937163677390174e-01  4.0650623715056844e-02  9.8806887760499902e-03 -7.6563815529908874e-02  1.4106453867674118e-02
3.100000000000000e-08 -2.5066203868904555e-02  1.9536042013873003e-02 -1.4350812059848266e+01  1.3937166718058158e-01  4.0650623898726757e-02  9.8806885294809264e-03 -7.6563815586237982e-02  1.4106453942133848e-02
3.200000000000000e-08 -2.5066203652323489e-02  1.9536041917878416e-02 -1.4350812055783436e+01  1.3937169758726142e-01  4.0650624082396669e-02  9.8806882829118575e-03 -7.6563815642567090e-02  1.4106454016593564e-02
3.300000000000000e-08 -2.5066203435742423e-02  1.9536041821883829e-02 -1.4350812051718620e+01  1.3937172799394126e-01  4.0650624266066582e-02  9.8806880363427919e-03 -7.6563815698896254e-02  1.4106454091053294e-02
3.400000000000000e-08 -2.5066203219161365e-02  1.9536041725889228e-02 -1.4350812047653790e+01  1.3937175840062110e-01  4.0650624449736494e-02  9.8806877897737282e-03 -7.6563815755225362e-02  1.4106454165513010e-02
3.500000000000000e-08 -2.5066203002580299e-02  1.9536041629894640e-02 -1.4350812043588988e+01  1.3937178880730094e-01  4.0650624633406462e-02  9.8806875432046627e-03 -7.6563815811554470e-02  1.4106454239972741e-02
3.600000000000000e-08 -2.5066202785999248e-02  1.9536041533900067e-02 -1.4350812039524172e+01  1.3937181921398079e-01  4.0650624817076375e-02  9.8806872966355937e-03 -7.6563815867883633e-02  1.4106454314432471e-02
3.700000000000000e-08 -2.5066202569418189e-02  1.9536041437905466e-02 -1.4350812035459342e+01  1.3937184962066063e-01  4.0650625000746288e-02  9.8806870500665299e-03 -7.6563815924212741e-02  1.4106454388892201e-02
3.800000000000000e-08 -2.5066202352837123e-02  1.9536041341910879e-02 -1.4350812031394526e+01  1.3937188002734047e-01  4.0650625184416200e-02  9.8806868034974644e-03 -7.6563815980541849e-02  1.4106454463351917e-02
3.900000000000001e-08 -2.5066202136256058e-02  1.9536041245916291e-02 -1.4350812027329695e+01  1.3937191043402031e-01  4.0650625368086113e-02  9.8806865569284006e-03 -7.6563816036871013e-02  1.4106454537811647e-02
4.000000000000000e-08 -2.5066201919674992e-02  1.9536041149921704e-02 -1.4350812023264879e+01  1.3937194084070015e-01  4.0650625551756026e-02  9.8806863103593351e-03 -7.6563816093200121e-02  1.4106454612271363e-02
4.100000000000000e-08 -2.5066201703093934e-02  1.9536041053927103e-02 -1.4350812019200049e+01  1.3937197124737999e-01  4.0650625735425938e-02  9.8806860637902661e-03 -7.6563816149529229e-02  1.4106454686731093e-02
4.200000000000001e-08 -2.5066201486512882e-02  1.9536040957932516e-02 -1.4350812015135233e+01  1.3937200165406161e-01  4.0650625919095851e-02  9.8806858172212023e-03 -7.6563816205858393e-02  1.4106454761190809e-02
4.300000000000000e-08 -2.5066201269931816e-02  1.9536040861937942e-02 -1.4350812011070403e+01  1.3937203206073967e-01  4.0650626102765763e-02  9.8806855706521368e-03 -7.6563816262187501e-02  1.4106454835650553e-02
4.400000000000000e-08 -2.5066201053350751e-02  1.9536040765943341e-02 -1.4350812007005587e+01  1.3937206246741951e-01  4.0650626286435732e-02  9.8806853240830730e-03 -7.6563816318516609e-02  1.4106454910110269e-02
4.500000000000001e-08 -2.5066200836769685e-02  1.9536040669948754e-02 -1.4350812002940771e+01  1.3937209287410113e-01  4.0650626470105644e-02  9.8806850775140041e-03 -7.6563816374845717e-02  1.4106454984569999e-02
4.600000000000000e-08 -2.5066200620188626e-02  1.9536040573954166e-02 -1.4350811998875940e+01  1.3937212328077919e-01  4.0650626653775557e-02  9.8806848309449403e-03 -7.6563816431174880e-02  1.4106455059029716e-02
4.700000000000000e-08 -2.5066200403607561e-02  1.9536040477959565e-02 -1.4350811994811124e+01  1.3937215368745903e-01  4.0650626837445469e-02  9.8806845843758748e-03 -7.6563816487503933e-02  1.4106455133489446e-02
4.800000000000001e-08 -2.5066200187026495e-02  1.9536040381964978e-02 -1.4350811990746294e+01  1.3937218409413887e-01  4.0650627021115437e-02  9.8806843378068093e-03 -7.6563816543833096e-02  1.4106455207949162e-02
4.900000000000000e-08 -2.5066199970445444e-02  1.9536040285970391e-02 -1.4350811986681478e+01  1.3937221450082049e-01  4.0650627204785350e-02  9.8806840912377403e-03 -7.6563816600162204e-02  1.4106455282408892e-02
5.000000000000000e-08 -2.5066199753864385e-02  1.9536040189975803e-02 -1.4350811982616648e+01  1.3937224490749855e-01  4.0650627388455263e-02  9.8806838446686765e-03 -7.6563816656491313e-02  1.4106455356868608e-02
5.100000000000000e-08 -2.5066199537283319e-02  1.9536040093981216e-02 -1.4350811978551832e+01  1.3937227531417840e-01  4.0650627572125175e-02  9.8806835980996110e-03 -7.6563816712820476e-02  1.4106455431328338e-02
5.200000000000000e-08 -2.5066199320702254e-02  1.9536039997986629e-02 -1.4350811974487016e+01  1.3937230572086001e-01  4.0650627755795088e-02  9.8806833515305455e-03 -7.6563816769149584e-02  1.4106455505788068e-02
5.300000000000000e-08 -2.5066199104121195e-02  1.9536039901992028e-02 -1.4350811970422185e+01  1.3937233612753808e-01  4.0650627939465056e-02  9.8806831049614782e-03 -7.6563816825478692e-02  1.4106455580247784e-02
5.400000000000000e-08 -2.5066198887540130e-02  1.9536039805997440e-02 -1.4350811966357369e+01  1.3937236653421792e-01  4.0650628123134969e-02  9.8806828583924127e-03 -7.6563816881807856e-02  1.4106455654707514e-02
5.500000000000000e-08 -2.5066198670959078e-02  1.9536039710002853e-02 -1.4350811962292539e+01  1.3937239694089953e-01  4.0650628306804881e-02  9.8806826118233472e-03 -7.6563816938136964e-02  1.4106455729167230e-02
5.600000000000001e-08 -2.5066198454378012e-02  1.9536039614008252e-02 -1.4350811958227723e+01  1.3937242734757760e-01  4.0650628490474794e-02  9.8806823652542834e-03 -7.6563816994466072e-02  1.4106455803626960e-02
5.700000000000000e-08 -2.5066198237796947e-02  1.9536039518013679e-02 -1.4350811954162893e+01  1.3937245775425744e-01  4.0650628674144706e-02  9.8806821186852144e-03 -7.6563817050795235e-02  1.4106455878086677e-02
5.800000000000000e-08 -2.5066198021215888e-02  1.9536039422019091e-02 -1.4350811950098077e+01  1.3937248816093906e-01  4.0650628857814675e-02  9.8806818721161489e-03 -7.6563817107124288e-02  1.4106455952546407e-02
5.900000000000001e-08 -2.5066197804634822e-02  1.9536039326024490e-02 -1.4350811946033247e+01  1.3937251856761890e-01  4.0650629041484587e-02  9.8806816255470852e-03 -7.6563817163453451e-02  1.4106456027006137e-02
6.000000000000001e-08 -2.5066197588053757e-02  1.9536039230029903e-02 -1.4350811941968445e+01  1.3937254897429696e-01  4.0650629225154500e-02  9.8806813789780196e-03 -7.6563817219782559e-02  1.4106456101465867e-02
6.100000000000000e-08 -2.5066197371472705e-02  1.9536039134035316e-02 -1.4350811937903629e+01  1.3937257938097858e-01  4.0650629408824412e-02  9.8806811324089507e-03 -7.6563817276111668e-02  1.4106456175925583e-02
6.200000000000000e-08 -2.5066197154891647e-02  1.9536039038040728e-02 -1.4350811933838798e+01  1.3937260978765842e-01  4.0650629592494325e-02  9.8806808858398869e-03 -7.6563817332440776e-02  1.4106456250385313e-02
6.300000000000001e-08 -2.5066196938310581e-02  1.9536038942046127e-02 -1.4350811929773982e+01  1.3937264019433648e-01  4.0650629776164293e-02  9.8806806392708214e-03 -7.6563817388769939e-02  1.4106456324845029e-02
6.400000000000000e-08 -2.5066196721729515e-02  1.9536038846051540e-02 -1.4350811925709152e+01  1.3937267060101632e-01  4.0650629959834150e-02  9.8806803927017559e-03 -7.6563817445099047e-02  1.4106456399304759e-02
6.500000000000000e-08 -2.5066196505148457e-02  1.9536038750056967e-02 -1.4350811921644336e+01  1.3937270100769794e-01  4.0650630143504118e-02  9.8806801461326921e-03 -7.6563817501428155e-02  1.4106456473764475e-02
6.600000000000001e-08 -2.5066196288567391e-02  1.9536038654062365e-02 -1.4350811917579506e+01  1.3937273141437778e-01  4.0650630327173976e-02  9.8806798995636231e-03 -7.6563817557757319e-02  1.4106456548224205e-02
6.700000000000000e-08 -2.5066196071986326e-02  1.9536038558067778e-02 -1.4350811913514690e+01  1.3937276182105585e-01  4.0650630510843944e-02  9.8806796529945576e-03 -7.6563817614086427e-02  1.4106456622683936e-02
6.800000000000000e-08 -2.5066195855405274e-02  1.9536038462073191e-02 -1.4350811909449860e+01  1.3937279222773746e-01  4.0650630694513856e-02  9.8806794064254921e-03 -7.6563817670415590e-02  1.4106456697143666e-02
6.900000000000001e-08 -2.5066195638824215e-02  1.9536038366078590e-02 -1.4350811905385044e+01  1.3937282263441730e-01  4.0650630878183769e-02  9.8806791598564283e-03 -7.6563817726744698e-02  1.4106456771603382e-02
7.000000000000000e-08 -2.5066195422243150e-02  1.9536038270084002e-02 -1.4350811901320228e+01  1.3937285304109537e-01  4.0650631061853681e-02  9.8806789132873593e-03 -7.6563817783073806e-02  1.4106456846063112e-02
7.100000000000000e-08 -2.5066195205662084e-02  1.9536038174089415e-02 -1.4350811897255397e+01  1.3937288344777699e-01  4.0650631245523594e-02  9.8806786667182938e-03 -7.6563817839402970e-02  1.4106456920522828e-02
7.200000000000001e-08 -2.5066194989081018e-02  1.9536038078094828e-02 -1.4350811893190581e+01  1.3937291385445683e-01  4.0650631429193562e-02  9.8806784201492300e-03 -7.6563817895732078e-02  1.4106456994982544e-02
7.300000000000001e-08 -2.5066194772499953e-02  1.9536037982100241e-02 -1.4350811889125751e+01  1.3937294426113489e-01  4.0650631612863475e-02  9.8806781735801645e-03 -7.6563817952061186e-02  1.4106457069442274e-02
7.400000000000000e-08 -2.5066194555918908e-02  1.9536037886105653e-02 -1.4350811885060935e+01  1.3937297466781651e-01  4.0650631796533387e-02  9.8806779270110955e-03 -7.6563818008390294e-02  1.4106457143902004e-02
7.500000000000001e-08 -2.5066194339337843e-02  1.9536037790111052e-02 -1.4350811880996105e+01  1.3937300507449635e-01  4.0650631980203300e-02  9.8806776804420317e-03 -7.6563818064719402e-02  1.4106457218361734e-02
7.600000000000001e-08 -2.5066194122756777e-02  1.9536037694116465e-02 -1.4350811876931289e+01  1.3937303548117619e-01  4.0650632163873213e-02  9.8806774338729662e-03 -7.6563818121048510e-02  1.4106457292821450e-02
7.700000000000000e-08 -2.5066193906175711e-02  1.9536037598121878e-02 -1.4350811872866458e+01  1.3937306588785603e-01  4.0650632347543181e-02  9.8806771873039007e-03 -7.6563818177377674e-02  1.4106457367281180e-02
7.800000000000001e-08 -2.5066193689594653e-02  1.9536037502127276e-02 -1.4350811868801642e+01  1.3937309629453587e-01  4.0650632531213093e-02  9.8806769407348369e-03 -7.6563818233706782e-02  1.4106457441740897e-02
7.900000000000001e-08 -2.5066193473013587e-02  1.9536037406132703e-02 -1.4350811864736812e+01  1.3937312670121571e-01  4.0650632714883006e-02  9.8806766941657680e-03 -7.6563818290035890e-02  1.4106457516200627e-02
8.000000000000000e-08 -2.5066193256432522e-02  1.9536037310138116e-02 -1.4350811860671996e+01  1.3937315710789377e-01  4.0650632898552919e-02  9.8806764475967042e-03 -7.6563818346365053e-02  1.4106457590660343e-02
8.100000000000001e-08 -2.5066193039851477e-02  1.9536037214143515e-02 -1.4350811856607180e+01  1.3937318751457539e-01  4.0650633082222831e-02  9.8806762010276387e-03 -7.6563818402694162e-02  1.4106457665120073e-02
8.200000000000001e-08 -2.5066192823270411e-02  1.9536037118148927e-02 -1.4350811852542350e+01  1.3937321792125523e-01  4.0650633265892799e-02  9.8806759544585732e-03 -7.6563818459023270e-02  1.4106457739579803e-02
8.300000000000000e-08 -2.5066192606689346e-02  1.9536037022154340e-02 -1.4350811848477534e+01  1.3937324832793330e-01  4.0650633449562712e-02  9.8806757078895059e-03 -7.6563818515352433e-02  1.4106457814039533e-02
8.400000000000001e-08 -2.5066192390108280e-02  1.9536036926159753e-02 -1.4350811844412718e+01  1.3937327873461491e-01  4.0650633633232625e-02  9.8806754613204404e-03 -7.6563818571681541e-02  1.4106457888499249e-02
8.500000000000001e-08 -2.5066192173527221e-02  1.9536036830165152e-02 -1.4350811840347902e+01  1.3937330914129475e-01  4.0650633816902537e-02  9.8806752147513766e-03 -7.6563818628010649e-02  1.4106457962958979e-02
8.600000000000000e-08 -2.5066191956946156e-02  1.9536036734170578e-02 -1.4350811836283071e+01  1.3937333954797460e-01  4.0650634000572505e-02  9.8806749681823111e-03 -7.6563818684339813e-02  1.4106458037418695e-02
8.700000000000001e-08 -2.5066191740365104e-02  1.9536036638175991e-02 -1.4350811832218255e+01  1.3937336995465444e-01  4.0650634184242418e-02  9.8806747216132421e-03 -7.6563818740668865e-02  1.4106458111878425e-02
8.800000000000001e-08 -2.5066191523784039e-02  1.9536036542181390e-02 -1.4350811828153425e+01  1.3937340036133428e-01  4.0650634367912331e-02  9.8806744750441784e-03 -7.6563818796998029e-02  1.4106458186338142e-02
8.900000000000000e-08 -2.5066191307202973e-02  1.9536036446186802e-02 -1.4350811824088609e+01  1.3937343076801412e-01  4.0650634551582188e-02  9.8806742284751128e-03 -7.6563818853327137e-02  1.4106458260797872e-02
9.000000000000001e-08 -2.5066191090621914e-02  1.9536036350192215e-02 -1.4350811820023793e+01  1.3937346117469396e-01  4.0650634735252156e-02  9.8806739819060473e-03 -7.6563818909656245e-02  1.4106458335257588e-02
9.100000000000001e-08 -2.5066190874040849e-02  1.9536036254197614e-02 -1.4350811815958963e+01  1.3937349158137380e-01  4.0650634918922068e-02  9.8806737353369836e-03 -7.6563818965985353e-02  1.4106458409717332e-02
9.200000000000000e-08 -2.5066190657459783e-02  1.9536036158203027e-02 -1.4350811811894147e+01  1.3937352198805364e-01  4.0650635102591981e-02  9.8806734887679146e-03 -7.6563819022314517e-02  1.4106458484177048e-02
9.300000000000001e-08 -2.5066190440878731e-02  1.9536036062208439e-02 -1.4350811807829317e+01  1.3937355239473526e-01  4.0650635286261894e-02  9.8806732421988491e-03 -7.6563819078643625e-02  1.4106458558636778e-02
