# GHz S RI R 50

1.000000000000000e-09 -5.4953160373971480e-03  2.2910539643191261e-02  9.8659565012967398e-01 -6.4311525583621576e-03  9.8592437065322880e-01 -9.3512043205113277e-03 -3.9319239980795742e-03  1.5935040242948190e-02
2.000000000000000e-09 -5.4953146446842793e-03  2.2910538521243081e-02  9.8659564993214310e-01 -6.4311547780985384e-03  9.8592437051071524e-01 -9.3512064332340605e-03 -3.9319228165426781e-03  1.5935039711326635e-02
3.000000000000000e-09 -5.4953132519714384e-03  2.2910537399294880e-02  9.8659564973461134e-01 -6.4311569978348637e-03  9.8592437036819902e-01 -9.3512085459567795e-03 -3.9319216350057959e-03  1.5935039179705054e-02
4.000000000000000e-09 -5.4953118592585837e-03  2.2910536277346710e-02  9.8659564953708134e-01 -6.4311592175712307e-03  9.8592437022568502e-01 -9.3512106586795124e-03 -3.9319204534688998e-03  1.5935038648083502e-02
5.000000000000000e-09 -5.4953104665457359e-03  2.2910535155398509e-02  9.8659564933954869e-01 -6.4311614373075560e-03  9.8592437008316969e-01 -9.3512127714022036e-03 -3.9319192719320176e-03  1.5935038116461926e-02
6.000000000000001e-09 -5.4953090738328811e-03  2.2910534033450329e-02  9.8659564914201869e-01 -6.4311636570439368e-03  9.8592436994065524e-01 -9.3512148841249781e-03 -3.9319180903951284e-03  1.5935037584840366e-02
7.000000000000001e-09 -5.4953076811200402e-03  2.2910532911502135e-02  9.8659564894448604e-01 -6.4311658767802482e-03  9.8592436979813947e-01 -9.3512169968476555e-03 -3.9319169088582462e-03  1.5935037053218797e-02
8.000000000000000e-09 -5.4953062884071854e-03  2.2910531789553955e-02  9.8659564874695560e-01 -6.4311680965166151e-03  9.8592436965562458e-01 -9.3512191095703884e-03 -3.9319157273213570e-03  1.5935036521597234e-02
9.000000000000001e-09 -5.4953048956943376e-03  2.2910530667605768e-02  9.8659564854942472e-01 -6.4311703162529821e-03  9.8592436951311013e-01 -9.3512212222930935e-03 -3.9319145457844609e-03  1.5935035989975668e-02
1.000000000000000e-08 -5.4953035029814828e-03  2.2910529545657581e-02  9.8659564835189295e-01 -6.4311725359893213e-03  9.8592436937059524e-01 -9.3512233350158402e-03 -3.9319133642475787e-03  1.5935035458354098e-02
1.100000000000000e-08 -5.4953021102686281e-03  2.2910528423709393e-02  9.8659564815436163e-01 -6.4311747557256743e-03  9.8592436922807991e-01 -9.3512254477385592e-03 -3.9319121827106895e-03  1.5935034926732532e-02
1.200000000000000e-08 -5.4953007175557803e-03  2.2910527301761210e-02  9.8659564795683075e-01 -6.4311769754620274e-03  9.8592436908556547e-01 -9.3512275604612644e-03 -3.9319110011738004e-03  1.5935034395110965e-02
1.300000000000000e-08 -5.4952993248429324e-03  2.2910526179813016e-02  9.8659564775929898e-01 -6.4311791951983804e-03  9.8592436894305058e-01 -9.3512296731840111e-03 -3.9319098196369182e-03  1.5935033863489403e-02
1.400000000000000e-08 -5.4952979321300846e-03  2.2910525057864829e-02  9.8659564756176810e-01 -6.4311814149347196e-03  9.8592436880053524e-01 -9.3512317859067162e-03 -3.9319086381000221e-03  1.5935033331867837e-02
1.500000000000000e-08 -5.4952965394172298e-03  2.2910523935916641e-02  9.8659564736423722e-01 -6.4311836346710727e-03  9.8592436865802080e-01 -9.3512338986294352e-03 -3.9319074565631398e-03  1.5935032800246263e-02
1.600000000000000e-08 -5.4952951467043820e-03  2.2910522813968454e-02  9.8659564716670545e-01 -6.4311858544074257e-03  9.8592436851550591e-01 -9.3512360113521542e-03 -3.9319062750262437e-03  1.5935032268624701e-02
1.700000000000000e-08 -5.4952937539915342e-03  2.2910521692020271e-02  9.8659564696917457e-01 -6.4311880741437788e-03  9.8592436837299058e-01 -9.3512381240748871e-03 -3.9319050934893615e-03  1.5935031737003134e-02
1.800000000000000e-08 -5.4952923612786794e-03  2.2910520570072080e-02  9.8659564677164235e-01 -6.4311902938801180e-03  9.8592436823047525e-01 -9.3512402367975922e-03 -3.9319039119524724e-03  1.5935031205381565e-02
1.900000000000000e-08 -5.4952909685658247e-03  2.2910519448123900e-02  9.8659564657411236e-01 -6.4311925136164988e-03  9.8592436808796169e-01 -9.3512423495203251e-03 -3.9319027304155832e-03  1.5935030673760009e-02
2.000000000000000e-08 -5.4952895758529838e-03  2.2910518326175699e-02  9.8659564637658059e-01 -6.4311947333528102e-03  9.8592436794544547e-01 -9.3512444622430441e-03 -3.9319015488787010e-03  1.5935030142138436e-02
2.100000000000000e-08 -5.4952881831401221e-03  2.2910517204227529e-02  9.8659564617904971e-01 -6.4311969530891910e-03  9.8592436780293147e-01 -9.3512465749657908e-03 -3.9319003673418049e-03  1.5935029610516876e-02
2.200000000000000e-08 -5.4952867904272812e-03  2.2910516082279328e-02  9.8659564598151794e-01 -6.4311991728255163e-03  9.8592436766041613e-01 -9.3512486876884682e-03 -3.9318991858049296e-03  1.5935029078895300e-02
2.300000000000000e-08 -5.4952853977144264e-03  2.2910514960331148e-02  9.8659564578398795e-01 -6.4312013925618833e-03  9.8592436751790169e-01 -9.3512508004112149e-03 -3.9318980042680265e-03  1.5935028547273741e-02
2.400000000000000e-08 -5.4952840050015786e-03  2.2910513838382954e-02  9.8659564558645529e-01 -6.4312036122982225e-03  9.8592436737538591e-01 -9.3512529131339200e-03 -3.9318968227311513e-03  1.5935028015652171e-02
2.500000000000000e-08 -5.4952826122887238e-03  2.2910512716434777e-02  9.8659564538892530e-01 -6.4312058320345894e-03  9.8592436723287147e-01 -9.3512550258566668e-03 -3.9318956411942482e-03  1.5935027484030612e-02
2.600000000000000e-08 -5.4952812195758829e-03  2.2910511594486576e-02  9.8659564519139265e-01 -6.4312080517709147e-03  9.8592436709035614e-01 -9.3512571385793580e-03 -3.9318944596573729e-03  1.5935026952409032e-02
2.700000000000000e-08 -5.4952798268630212e-03  2.2910510472538403e-02  9.8659564499386265e-01 -6.4312102715072955e-03  9.8592436694784213e-01 -9.3512592513020909e-03 -3.9318932781204768e-03  1.5935026420787483e-02
2.800000000000000e-08 -5.4952784341501734e-03  2.2910509350590212e-02  9.8659564479633133e-01 -6.4312124912436347e-03  9.8592436680532636e-01 -9.3512613640248238e-03 -3.9318920965835946e-03  1.5935025889165906e-02
2.900000000000000e-08 -5.4952770414373256e-03  2.2910508228642022e-02  9.8659564459879956e-01 -6.4312147109799739e-03  9.8592436666281191e-01 -9.3512634767475289e-03 -3.9318909150467124e-03  1.5935025357544340e-02
3.000000000000000e-08 -5.4952756487244708e-03  2.2910507106693834e-02  9.8659564440126868e-01 -6.4312169307163269e-03  9.8592436652029702e-01 -9.3512655894702479e-03 -3.9318897335098163e-03  1.5935024825922777e-02
3.100000000000000e-08 -5.4952742560116230e-03  2.2910505984745647e-02  9.8659564420373780e-01 -6.4312191504526800e-03  9.8592436637778169e-01 -9.3512677021929808e-03 -3.9318885519729341e-03  1.5935024294301211e-02
3.200000000000000e-08 -5.4952728632987752e-03  2.2910504862797460e-02  9.8659564400620603e-01 -6.4312213701890192e-03  9.8592436623526725e-01 -9.3512698149156998e-03 -3.9318873704360380e-03  1.5935023762679645e-02
3.300000000000000e-08 -5.4952714705859204e-03  2.2910503740849276e-02  9.8659564380867515e-01 -6.4312235899253861e-03  9.8592436609275236e-01 -9.3512719276384187e-03 -3.9318861888991558e-03  1.5935023231058082e-02
3.400000000000000e-08 -5.4952700778730726e-03  2.2910502618901089e-02  9.8659564361114427e-01 -6.4312258096617392e-03  9.8592436595023702e-01 -9.3512740403611239e-03 -3.9318850073622597e-03  1.5935022699436509e-02
3.500000000000000e-08 -5.4952686851602248e-03  2.2910501496952902e-02  9.8659564341361250e-01 -6.4312280293980922e-03  9.8592436580772214e-01 -9.3512761530838706e-03 -3.9318838258253774e-03  1.5935022167814943e-02
3.600000000000000e-08 -5.4952672924473700e-03  2.2910500375004708e-02  9.8659564321608162e-01 -6.4312302491344314e-03  9.8592436566520769e-01 -9.3512782658065896e-03 -3.9318826442884883e-03  1.5935021636193380e-02
3.700000000000000e-08 -5.4952658997345222e-03  2.2910499253056518e-02  9.8659564301854941e-01 -6.4312324688707706e-03  9.8592436552269191e-01 -9.3512803785292808e-03 -3.9318814627516060e-03  1.5935021104571810e-02
3.800000000000000e-08 -5.4952645070216674e-03  2.2910498131108348e-02  9.8659564282101941e-01 -6.4312346886071375e-03  9.8592436538017791e-01 -9.3512824912520554e-03 -3.9318802812147169e-03  1.5935020572950251e-02
3.900000000000001e-08 -5.4952631143088265e-03  2.2910497009160147e-02  9.8659564262348765e-01 -6.4312369083434628e-03  9.8592436523766169e-01 -9.3512846039747327e-03 -3.9318790996778277e-03  1.5935020041328674e-02
4.000000000000000e-08 -5.4952617215959648e-03  2.2910495887211967e-02  9.8659564242595676e-01 -6.4312391280798437e-03  9.8592436509514814e-01 -9.3512867166974795e-03 -3.9318779181409386e-03  1.5935019509707122e-02
4.100000000000000e-08 -5.4952603288831239e-03  2.2910494765263772e-02  9.8659564222842500e-01 -6.4312413478161828e-03  9.8592436495263236e-01 -9.3512888294201568e-03 -3.9318767366040494e-03  1.5935018978085545e-02
4.200000000000001e-08 -5.4952589361702692e-03  2.2910493643315596e-02  9.8659564203089500e-01 -6.4312435675525498e-03  9.8592436481011791e-01 -9.3512909421429313e-03 -3.9318755550671602e-03  1.5935018446463986e-02
4.300000000000000e-08 -5.4952575434574213e-03  2.2910492521367395e-02  9.8659564183336190e-01 -6.4312457872888751e-03  9.8592436466760258e-01 -9.3512930548656226e-03 -3.9318743735302711e-03  1.5935017914842413e-02
4.400000000000000e-08 -5.4952561507445596e-03  2.2910491399419221e-02  9.8659564163583191e-01 -6.4312480070252559e-03  9.8592436452508858e-01 -9.3512951675883554e-03 -3.9318731919933819e-03  1.5935017383220857e-02
4.500000000000001e-08 -5.4952547580317188e-03  2.2910490277471020e-02  9.8659564143829925e-01 -6.4312502267615673e-03  9.8592436438257236e-01 -9.3512972803110467e-03 -3.9318720104565066e-03  1.5935016851599277e-02
4.600000000000000e-08 -5.4952533653188571e-03  2.2910489155522844e-02  9.8659564124076926e-01 -6.4312524464979481e-03  9.8592436424005880e-01 -9.3512993930338212e-03 -3.9318708289196036e-03  1.5935016319977718e-02
4.700000000000000e-08 -5.4952519726060162e-03  2.2910488033574653e-02  9.8659564104323794e-01 -6.4312546662342873e-03  9.8592436409754347e-01 -9.3513015057565124e-03 -3.9318696473827283e-03  1.5935015788356151e-02
4.800000000000001e-08 -5.4952505798931683e-03  2.2910486911626466e-02  9.8659564084570617e-01 -6.4312568859706265e-03  9.8592436395502814e-01 -9.3513036184792314e-03 -3.9318684658458322e-03  1.5935015256734585e-02
4.900000000000000e-08 -5.4952491871803136e-03  2.2910485789678279e-02  9.8659564064817529e-01 -6.4312591057069796e-03  9.8592436381251369e-01 -9.3513057312019643e-03 -3.9318672843089500e-03  1.5935014725113019e-02
5.000000000000000e-08 -5.4952477944674658e-03  2.2910484667730095e-02  9.8659564045064441e-01 -6.4312613254433465e-03  9.8592436366999880e-01 -9.3513078439246833e-03 -3.9318661027720539e-03  1.5935014193491456e-02
5.100000000000000e-08 -5.4952464017546179e-03  2.2910483545781908e-02  9.8659564025311264e-01 -6.4312635451796857e-03  9.8592436352748347e-01 -9.3513099566473884e-03 -3.9318649212351717e-03  1.5935013661869890e-02
5.200000000000000e-08 -5.4952450090417562e-03  2.2910482423833714e-02  9.8659564005558176e-01 -6.4312657649160387e-03  9.8592436338496903e-01 -9.3513120693701074e-03 -3.9318637396982756e-03  1.5935013130248317e-02
5.300000000000000e-08 -5.4952436163289084e-03  2.2910481301885527e-02  9.8659563985804999e-01 -6.4312679846523918e-03  9.8592436324245325e-01 -9.3513141820928541e-03 -3.9318625581613934e-03  1.5935012598626754e-02
5.400000000000000e-08 -5.4952422236160606e-03  2.2910480179937343e-02  9.8659563966051911e-01 -6.4312702043887310e-03  9.8592436309993881e-01 -9.3513162948155593e-03 -3.9318613766245111e-03  1.5935012067005188e-02
5.500000000000000e-08 -5.4952408309032127e-03  2.2910479057989156e-02  9.8659563946298823e-01 -6.4312724241250840e-03  9.8592436295742392e-01 -9.3513184075382783e-03 -3.9318601950876150e-03  1.5935011535383625e-02
5.600000000000001e-08 -5.4952394381903649e-03  2.2910477936040965e-02  9.8659563926545601e-01 -6.4312746438614232e-03  9.8592436281490814e-01 -9.3513205202609972e-03 -3.9318590135507397e-03  1.5935011003762056e-02
5.700000000000000e-08 -5.4952380454775102e-03  2.2910476814092785e-02  9.8659563906792602e-01 -6.4312768635977902e-03  9.8592436267239458e-01 -9.3513226329837440e-03 -3.9318578320138367e-03  1.5935010472140496e-02
5.800000000000000e-08 -5.4952366527646693e-03  2.2910475692144591e-02  9.8659563887039425e-01 -6.4312790833341293e-03  9.8592436252987881e-01 -9.3513247457064352e-03 -3.9318566504769614e-03  1.5935009940518920e-02
5.900000000000001e-08 -5.4952352600518076e-03  2.2910474570196415e-02  9.8659563867286337e-01 -6.4312813030705102e-03  9.8592436238736436e-01 -9.3513268584291681e-03 -3.9318554689400584e-03  1.5935009408897360e-02
6.000000000000001e-08 -5.4952338673389597e-03  2.2910473448248213e-02  9.8659563847533160e-01 -6.4312835228068216e-03  9.8592436224484903e-01 -9.3513289711518871e-03 -3.9318542874031831e-03  1.5935008877275787e-02
6.100000000000000e-08 -5.4952324746261050e-03  2.2910472326300040e-02  9.8659563827780161e-01 -6.4312857425432024e-03  9.8592436210233503e-01 -9.3513310838746200e-03 -3.9318531058662870e-03  1.5935008345654231e-02
6.200000000000000e-08 -5.4952310819132572e-03  2.2910471204351839e-02  9.8659563808026896e-01 -6.4312879622795277e-03  9.8592436195981881e-01 -9.3513331965973112e-03 -3.9318519243294048e-03  1.5935007814032658e-02
6.300000000000001e-08 -5.4952296892004024e-03  2.2910470082403663e-02  9.8659563788273896e-01 -6.4312901820159085e-03  9.8592436181730525e-01 -9.3513353093200580e-03 -3.9318507427925156e-03  1.5935007282411099e-02
6.400000000000000e-08 -5.4952282964875615e-03  2.2910468960455468e-02  9.8659563768520631e-01 -6.4312924017522199e-03  9.8592436167478947e-01 -9.3513374220427631e-03 -3.9318495612556265e-03  1.5935006750789522e-02
6.500000000000000e-08 -5.4952269037746998e-03  2.2910467838507288e-02  9.8659563748767631e-01 -6.4312946214886008e-03  9.8592436153227503e-01 -9.3513395347655098e-03 -3.9318483797187373e-03  1.5935006219167963e-02
6.600000000000001e-08 -5.4952255110618589e-03  2.2910466716559098e-02  9.8659563729014499e-01 -6.4312968412249399e-03  9.8592436138976014e-01 -9.3513416474882011e-03 -3.9318471981818481e-03  1.5935005687546393e-02
6.700000000000000e-08 -5.4952241183490111e-03  2.2910465594610914e-02  9.8659563709261322e-01 -6.4312990609612930e-03  9.8592436124724436e-01 -9.3513437602109478e-03 -3.9318460166449659e-03  1.5935005155924831e-02
6.800000000000000e-08 -5.4952227256361494e-03  2.2910464472662727e-02  9.8659563689508234e-01 -6.4313012806976461e-03  9.8592436110472992e-01 -9.3513458729336668e-03 -3.9318448351080698e-03  1.5935004624303264e-02
6.900000000000001e-08 -5.4952213329233016e-03  2.2910463350714533e-02  9.8659563669755146e-01 -6.4313035004339991e-03  9.8592436096221547e-01 -9.3513479856563719e-03 -3.9318436535711876e-03  1.5935004092681698e-02
7.000000000000000e-08 -5.4952199402104537e-03  2.2910462228766346e-02  9.8659563650001969e-01 -6.4313057201703383e-03  9.8592436081969970e-01 -9.3513500983790909e-03 -3.9318424720342984e-03  1.5935003561060129e-02
7.100000000000000e-08 -5.4952185474975990e-03  2.2910461106818162e-02  9.8659563630248881e-01 -6.4313079399066914e-03  9.8592436067718525e-01 -9.3513522111018238e-03 -3.9318412904974093e-03  1.5935003029438562e-02
7.200000000000001e-08 -5.4952171547847511e-03  2.2910459984869975e-02  9.8659563610495704e-01 -6.4313101596430444e-03  9.8592436053467036e-01 -9.3513543238245428e-03 -3.9318401089605270e-03  1.5935002497817000e-02
7.300000000000001e-08 -5.4952157620719033e-03  2.2910458862921788e-02  9.8659563590742616e-01 -6.4313123793793836e-03  9.8592436039215503e-01 -9.3513564365472618e-03 -3.9318389274236309e-03  1.5935001966195433e-02
7.400000000000000e-08 -5.4952143693590486e-03  2.2910457740973601e-02  9.8659563570989484e-01 -6.4313145991157505e-03  9.8592436024964059e-01 -9.3513585492699947e-03 -3.9318377458867487e-03  1.5935001434573867e-02
7.500000000000001e-08 -5.4952129766462077e-03  2.2910456619025403e-02  9.8659563551236262e-01 -6.4313168188520897e-03  9.8592436010712525e-01 -9.3513606619926998e-03 -3.9318365643498596e-03  1.5935000902952294e-02
7.600000000000001e-08 -5.4952115839333460e-03  2.2910455497077233e-02  9.8659563531483263e-01 -6.4313190385884567e-03  9.8592435996461081e-01 -9.3513627747154326e-03 -3.9318353828129704e-03  1.5935000371330742e-02
7.700000000000000e-08 -5.4952101912205051e-03  2.2910454375129032e-02  9.8659563511730086e-01 -6.4313212583247820e-03  9.8592435982209548e-01 -9.3513648874381239e-03 -3.9318342012760882e-03  1.5934999839709162e-02
7.800000000000001e-08 -5.4952087985076434e-03  2.2910453253180852e-02  9.8659563491976998e-01 -6.4313234780611628e-03  9.8592435967958147e-01 -9.3513670001608984e-03 -3.9318330197391921e-03  1.5934999308087606e-02
7.900000000000001e-08 -5.4952074057948025e-03  2.2910452131232658e-02  9.8659563472223821e-01 -6.4313256977974742e-03  9.8592435953706525e-01 -9.3513691128835758e-03 -3.9318318382023099e-03  1.5934998776466033e-02
8.000000000000000e-08 -5.4952060130819408e-03  2.2910451009284481e-02  9.8659563452470822e-01 -6.4313279175338550e-03  9.8592435939455170e-01 -9.3513712256063225e-03 -3.9318306566654138e-03  1.5934998244844473e-02
8.100000000000001e-08 -5.4952046203690999e-03  2.2910449887336287e-02  9.8659563432717556e-01 -6.4313301372701942e-03  9.8592435925203592e-01 -9.3513733383290276e-03 -3.9318294751285385e-03  1.5934997713222897e-02
8.200000000000001e-08 -5.4952032276562451e-03  2.2910448765388107e-02  9.8659563412964557e-01 -6.4313323570065473e-03  9.8592435910952148e-01 -9.3513754510517744e-03 -3.9318282935916354e-03  1.5934997181601344e-02
8.300000000000000e-08 -5.4952018349434043e-03  2.2910447643439906e-02  9.8659563393211291e-01 -6.4313345767428864e-03  9.8592435896700614e-01 -9.3513775637744656e-03 -3.9318271120547602e-03  1.5934996649979768e-02
8.400000000000001e-08 -5.4952004422305425e-03  2.2910446521491736e-02  9.8659563373458292e-01 -6.4313367964792673e-03  9.8592435882449125e-01 -9.3513796764971985e-03 -3.9318259305178571e-03  1.5934996118358209e-02
8.500000000000001e-08 -5.4951990495176947e-03  2.2910445399543539e-02  9.8659563353705160e-01 -6.4313390162155926e-03  9.8592435868197636e-01 -9.3513817892199314e-03 -3.9318247489809818e-03  1.5934995586736639e-02
8.600000000000000e-08 -5.4951976568048469e-03  2.2910444277595352e-02  9.8659563333951983e-01 -6.4313412359519456e-03  9.8592435853946192e-01 -9.3513839019426365e-03 -3.9318235674440927e-03  1.5934995055115073e-02
8.700000000000001e-08 -5.4951962640919921e-03  2.2910443155647164e-02  9.8659563314198895e-01 -6.4313434556882987e-03  9.8592435839694614e-01 -9.3513860146653555e-03 -3.9318223859072035e-03  1.5934994523493510e-02
8.800000000000001e-08 -5.4951948713791443e-03  2.2910442033698981e-02  9.8659563294445807e-01 -6.4313456754246379e-03  9.8592435825443170e-01 -9.3513881273880745e-03 -3.9318212043703143e-03  1.5934993991871937e-02
8.900000000000000e-08 -5.4951934786662965e-03  2.2910440911750794e-02  9.8659563274692630e-01 -6.4313478951609909e-03  9.8592435811191681e-01 -9.3513902401108073e-03 -3.9318200228334252e-03  1.5934993460250374e-02
9.000000000000001e-08 -5.4951920859534417e-03  2.2910439789802606e-02  9.8659563254939542e-01 -6.4313501148973579e-03  9.8592435796940148e-01 -9.3513923528335263e-03 -3.9318188412965430e-03  1.5934992928628808e-02
9.100000000000001e-08 -5.4951906932405939e-03  2.2910438667854419e-02  9.8659563235186365e-01 -6.4313523346337109e-03  9.8592435782688703e-01 -9.3513944655562314e-03 -3.9318176597596469e-03  1.5934992397007242e-02
9.200000000000000e-08 -5.4951893005277461e-03  2.2910437545906229e-02  9.8659563215433277e-01 -6.4313545543700501e-03  9.8592435768437214e-01 -9.3513965782789782e-03 -3.9318164782227646e-03  1.5934991865385679e-02
9.300000000000001e-08 -5.4951879078148913e-03  2.2910436423958042e-02  9.8659563195680189e-01 -6.4313567741064032e-03  9.8592435754185681e-01 -9.3513986910016972e-03 -3.9318152966858755e-03  1.5934991333764106e-02
