# GHz S RI R 50

5.000000000000000e-02  3.9999840000639995e-06 -1.9999920000319999e-03  9.9999600001599998e-01  1.9999920000319999e-03  9.9999600001599998e-01  1.9999920000319999e-03  3.9999840000639995e-06 -1.9999920000319999e-03
5.100000000000000e-02  3.8446603434819554e-06 -1.9607767751757973e-03  9.9999615533965647e-01  1.9607767751757973e-03  9.9999615533965647e-01  1.9607767751757973e-03  3.8446603434819554e-06 -1.9607767751757973e-03
5.200000000000000e-02  3.6982111752545296e-06 -1.9230698111323552e-03  9.9999630178882470e-01  1.9230698111323552e-03  9.9999630178882470e-01  1.9230698111323552e-03  3.6982111752545296e-06 -1.9230698111323552e-03
5.300000000000001e-02  3.5599730866034654e-06 -1.8867857358998365e-03  9.9999644002691335e-01  1.8867857358998365e-03  9.9999644002691335e-01  1.8867857358998365e-03  3.5599730866034654e-06 -1.8867857358998365e-03
5.400000000000001e-02  3.4293435207698189e-06 -1.8518455012157024e-03  9.9999657065647918e-01  1.8518455012157024e-03  9.9999657065647918e-01  1.8518455012157024e-03  3.4293435207698189e-06 -1.8518455012157024e-03
5.500000000000000e-02  3.3057741957877824e-06 -1.8181758076832803e-03  9.9999669422580417e-01  1.8181758076832803e-03  9.9999669422580417e-01  1.8181758076832803e-03  3.3057741957877824e-06 -1.8181758076832803e-03
5.600000000000000e-02  3.1887653419472516e-06 -1.7857085914904608e-03  9.9999681123465800e-01  1.7857085914904608e-03  9.9999681123465800e-01  1.7857085914904608e-03  3.1887653419472516e-06 -1.7857085914904608e-03
5.700000000000000e-02  3.0778606406259139e-06 -1.7543805651567708e-03  9.9999692213935942e-01  1.7543805651567708e-03  9.9999692213935942e-01  1.7543805651567708e-03  3.0778606406259139e-06 -1.7543805651567708e-03
5.800000000000000e-02  2.9726427686005691e-06 -1.7241328057883299e-03  9.9999702735723139e-01  1.7241328057883299e-03  9.9999702735723139e-01  1.7241328057883299e-03  2.9726427686005691e-06 -1.7241328057883299e-03
5.900000000000000e-02  2.8727294664479563e-06 -1.6949103852042942e-03  9.9999712727053358e-01  1.6949103852042942e-03  9.9999712727053358e-01  1.6949103852042942e-03  2.8727294664479563e-06 -1.6949103852042942e-03
6.000000000000000e-02  2.7777700617498283e-06 -1.6666620370498972e-03  9.9999722222993825e-01  1.6666620370498972e-03  9.9999722222993825e-01  1.6666620370498972e-03  2.7777700617498283e-06 -1.6666620370498972e-03
6.100000000000001e-02  2.6874423879538082e-06 -1.6393398566518231e-03  9.9999731255761204e-01  1.6393398566518231e-03  9.9999731255761204e-01  1.6393398566518231e-03  2.6874423879538082e-06 -1.6393398566518231e-03
6.200000000000001e-02  2.6014500482568984e-06 -1.6128990299192770e-03  9.9999739854995173e-01  1.6128990299192770e-03  9.9999739854995173e-01  1.6128990299192770e-03  2.6014500482568984e-06 -1.6128990299192770e-03
6.300000000000000e-02  2.5195199810532099e-06 -1.5872975880635222e-03  9.9999748048001891e-01  1.5872975880635222e-03  9.9999748048001891e-01  1.5872975880635222e-03  2.5195199810532099e-06 -1.5872975880635222e-03
6.400000000000000e-02  2.4414002895500743e-06 -1.5624961853120476e-03  9.9999755859971040e-01  1.5624961853120476e-03  9.9999755859971040e-01  1.5624961853120476e-03  2.4414002895500743e-06 -1.5624961853120476e-03
6.500000000000000e-02  2.3668583032939566e-06 -1.5384578971410720e-03  9.9999763314169665e-01  1.5384578971410720e-03  9.9999763314169665e-01  1.5384578971410720e-03  2.3668583032939566e-06 -1.5384578971410720e-03
6.600000000000000e-02  2.2956788437124800e-06 -1.5151480368502369e-03  9.9999770432115631e-01  1.5151480368502369e-03  9.9999770432115631e-01  1.5151480368502369e-03  2.2956788437124800e-06 -1.5151480368502369e-03
6.700000000000000e-02  2.2276626694972832e-06 -1.4925339885631798e-03  9.9999777233733045e-01  1.4925339885631798e-03  9.9999777233733045e-01  1.4925339885631798e-03  2.2276626694972832e-06 -1.4925339885631798e-03
6.800000000000000e-02  2.1626250808281125e-06 -1.4705850549631165e-03  9.9999783737491921e-01  1.4705850549631165e-03  9.9999783737491921e-01  1.4705850549631165e-03  2.1626250808281125e-06 -1.4705850549631165e-03
6.900000000000001e-02  2.1003946641573952e-06 -1.4492723182686026e-03  9.9999789960533580e-01  1.4492723182686026e-03  9.9999789960533580e-01  1.4492723182686026e-03  2.1003946641573952e-06 -1.4492723182686026e-03
7.000000000000001e-02  2.0408121616078334e-06 -1.4285685131254834e-03  9.9999795918783840e-01  1.4285685131254834e-03  9.9999795918783840e-01  1.4285685131254834e-03  2.0408121616078334e-06 -1.4285685131254834e-03
7.100000000000001e-02  1.9837294510425490e-06 -1.4084479102402098e-03  9.9999801627054896e-01  1.4084479102402098e-03  9.9999801627054896e-01  1.4084479102402098e-03  1.9837294510425490e-06 -1.4084479102402098e-03
7.200000000000001e-02  1.9290086245975606e-06 -1.3888862097102435e-03  9.9999807099137539e-01  1.3888862097102435e-03  9.9999807099137539e-01  1.3888862097102435e-03  1.9290086245975606e-06 -1.3888862097102435e-03
7.300000000000001e-02  1.8765211549612405e-06 -1.3698604431217054e-03  9.9999812347884509e-01  1.3698604431217054e-03  9.9999812347884509e-01  1.3698604431217054e-03  1.8765211549612405e-06 -1.3698604431217054e-03
7.400000000000001e-02  1.8261471399796567e-06 -1.3513488835849459e-03  9.9999817385286005e-01  1.3513488835849459e-03  9.9999817385286005e-01  1.3513488835849459e-03  1.8261471399796567e-06 -1.3513488835849459e-03
7.500000000000001e-02  1.7777746172895693e-06 -1.3333309629671769e-03  9.9999822222538270e-01  1.3333309629671769e-03  9.9999822222538270e-01  1.3333309629671769e-03  1.7777746172895693e-06 -1.3333309629671769e-03
7.600000000000000e-02  1.7312989416569570e-06 -1.3157871956592873e-03  9.9999826870105835e-01  1.3157871956592873e-03  9.9999826870105835e-01  1.3157871956592873e-03  1.7312989416569570e-06 -1.3157871956592873e-03
7.700000000000000e-02  1.6866222185491338e-06 -1.2986991082828330e-03  9.9999831337778144e-01  1.2986991082828330e-03  9.9999831337778144e-01  1.2986991082828330e-03  1.6866222185491338e-06 -1.2986991082828330e-03
7.800000000000000e-02  1.6436527882104073e-06 -1.2820491748041177e-03  9.9999835634721179e-01  1.2820491748041177e-03  9.9999835634721179e-01  1.2820491748041177e-03  1.6436527882104073e-06 -1.2820491748041177e-03
7.900000000000000e-02  1.6023047551598219e-06 -1.2658207565762593e-03  9.9999839769524479e-01  1.2658207565762593e-03  9.9999839769524479e-01  1.2658207565762593e-03  1.6023047551598219e-06 -1.2658207565762593e-03
8.000000000000000e-02  1.5624975585975647e-06 -1.2499980468780518e-03  9.9999843750244144e-01  1.2499980468780518e-03  9.9999843750244144e-01  1.2499980468780518e-03  1.5624975585975647e-06 -1.2499980468780518e-03
8.100000000000000e-02  1.5241555797049540e-06 -1.2345660195610126e-03  9.9999847584442025e-01  1.2345660195610126e-03  9.9999847584442025e-01  1.2345660195610126e-03  1.5241555797049540e-06 -1.2345660195610126e-03
8.200000000000000e-02  1.4872077822608830e-06 -1.2195103814539240e-03  9.9999851279221774e-01  1.2195103814539240e-03  9.9999851279221774e-01  1.2195103814539240e-03  1.4872077822608830e-06 -1.2195103814539240e-03
8.300000000000000e-02  1.4515873833830987e-06 -1.2048175282079719e-03  9.9999854841261659e-01  1.2048175282079719e-03  9.9999854841261659e-01  1.2048175282079719e-03  1.4515873833830987e-06 -1.2048175282079719e-03
8.400000000000001e-02  1.4172315515425858e-06 -1.1904745032957720e-03  9.9999858276844844e-01  1.1904745032957720e-03  9.9999858276844844e-01  1.1904745032957720e-03  1.4172315515425858e-06 -1.1904745032957720e-03
8.500000000000001e-02  1.3840811292994749e-06 -1.1764689599045538e-03  9.9999861591887074e-01  1.1764689599045538e-03  9.9999861591887074e-01  1.1764689599045538e-03  1.3840811292994749e-06 -1.1764689599045538e-03
8.600000000000001e-02  1.3520803784743396e-06 -1.1627891254879319e-03  9.9999864791962156e-01  1.1627891254879319e-03  9.9999864791962156e-01  1.1627891254879319e-03  1.3520803784743396e-06 -1.1627891254879319e-03
8.700000000000001e-02  1.3211767457038636e-06 -1.1494237687623612e-03  9.9999867882325433e-01  1.1494237687623612e-03  9.9999867882325433e-01  1.1494237687623612e-03  1.3211767457038636e-06 -1.1494237687623612e-03
8.800000000000001e-02  1.2913206465384213e-06 -1.1363621689538107e-03  9.9999870867935348e-01  1.1363621689538107e-03  9.9999870867935348e-01  1.1363621689538107e-03  1.2913206465384213e-06 -1.1363621689538107e-03
8.900000000000001e-02  1.2624652664243576e-06 -1.1235940871176782e-03  9.9999873753473356e-01  1.1235940871176782e-03  9.9999873753473356e-01  1.1235940871176782e-03  1.2624652664243576e-06 -1.1235940871176782e-03
9.000000000000001e-02  1.2345663770785468e-06 -1.1111097393706922e-03  9.9999876543362287e-01  1.1111097393706922e-03  9.9999876543362287e-01  1.1111097393706922e-03  1.2345663770785468e-06 -1.1111097393706922e-03
9.100000000000001e-02  1.2075821669095920e-06 -1.0988997718877286e-03  9.9999879241783307e-01  1.0988997718877286e-03  9.9999879241783307e-01  1.0988997718877286e-03  1.2075821669095920e-06 -1.0988997718877286e-03
9.200000000000001e-02  1.1814730842709307e-06 -1.0869552375292562e-03  9.9999881852691574e-01  1.0869552375292562e-03  9.9999881852691574e-01  1.0869552375292562e-03  1.1814730842709307e-06 -1.0869552375292562e-03
9.300000000000000e-02  1.1562016924480375e-06 -1.0752675739766748e-03  9.9999884379830750e-01  1.0752675739766748e-03  9.9999884379830750e-01  1.0752675739766748e-03  1.1562016924480375e-06 -1.0752675739766748e-03
9.400000000000000e-02  1.1317325353864470e-06 -1.0638285832632601e-03  9.9999886826746465e-01  1.0638285832632601e-03  9.9999886826746465e-01  1.0638285832632601e-03  1.1317325353864470e-06 -1.0638285832632601e-03
9.500000000000000e-02  1.1080320132609272e-06 -1.0526304125978807e-03  9.9999889196798675e-01  1.0526304125978807e-03  9.9999889196798675e-01  1.0526304125978807e-03  1.1080320132609272e-06 -1.0526304125978807e-03
9.600000000000000e-02  1.0850682670700227e-06 -1.0416655363872217e-03  9.9999891493173299e-01  1.0416655363872217e-03  9.9999891493173299e-01  1.0416655363872217e-03  1.0850682670700227e-06 -1.0416655363872217e-03
9.700000000000000e-02  1.0628110715154941e-06 -1.0309267393700293e-03  9.9999893718892852e-01  1.0309267393700293e-03  9.9999893718892852e-01  1.0309267393700293e-03  1.0628110715154941e-06 -1.0309267393700293e-03
9.800000000000000e-02  1.0412317354938197e-06 -1.0204071007839433e-03  9.9999895876826450e-01  1.0204071007839433e-03  9.9999895876826450e-01  1.0204071007839433e-03  1.0412317354938197e-06 -1.0204071007839433e-03
9.900000000000000e-02  1.0203030095877873e-06 -1.0100999794919094e-03  9.9999897969699036e-01  1.0100999794919094e-03  9.9999897969699036e-01  1.0100999794919094e-03  1.0203030095877873e-06 -1.0100999794919094e-03
1.000000000000000e-01  9.9999900000100006e-07 -9.9999900000099996e-04  9.9999900000099995e-01  9.9999900000099996e-04  9.9999900000099995e-01  9.9999900000099996e-04  9.9999900000100006e-07 -9.9999900000099996e-04
1.010000000000000e-01  9.8029508842751842e-07 -9.9009803931179364e-04  9.9999901970491156e-01  9.9009803931179364e-04  9.9999901970491156e-01  9.9009803931179364e-04  9.8029508842751842e-07 -9.9009803931179364e-04
1.020000000000000e-01  9.6116785739344742e-07 -9.8039121454131630e-04  9.9999903883214258e-01  9.8039121454131630e-04  9.9999903883214258e-01  9.8039121454131630e-04  9.6116785739344742e-07 -9.8039121454131630e-04
1.030000000000000e-01  9.4259502064754390e-07 -9.7087287126697026e-04  9.9999905740497941e-01  9.7087287126697026e-04  9.9999905740497941e-01  9.7087287126697026e-04  9.4259502064754390e-07 -9.7087287126697026e-04
1.040000000000000e-01  9.2455535821435075e-07 -9.6153757254292479e-04  9.9999907544464184e-01  9.6153757254292479e-04  9.9999907544464184e-01  9.6153757254292479e-04  9.2455535821435075e-07 -9.6153757254292479e-04
1.050000000000000e-01  9.0702865575632126e-07 -9.5238008854413737e-04  9.9999909297134426e-01  9.5238008854413737e-04  9.9999909297134426e-01  9.5238008854413737e-04  9.0702865575632126e-07 -9.5238008854413737e-04
1.060000000000000e-01  8.8999564792128167e-07 -9.4339538679655852e-04  9.9999911000435204e-01  9.4339538679655852e-04  9.9999911000435204e-01  9.4339538679655852e-04  8.8999564792128167e-07 -9.4339538679655852e-04
1.070000000000000e-01  8.7343796537866591e-07 -9.3457862295517251e-04  9.9999912656203460e-01  9.3457862295517251e-04  9.9999912656203460e-01  9.3457862295517251e-04  8.7343796537866591e-07 -9.3457862295517251e-04
1.080000000000000e-01  8.5733808527256061e-07 -9.2592513209436547e-04  9.9999914266191470e-01  9.2592513209436547e-04  9.9999914266191470e-01  9.2592513209436547e-04  8.5733808527256061e-07 -9.2592513209436547e-04
1.090000000000000e-01  8.4167928484194530e-07 -9.1743042047772035e-04  9.9999915832071518e-01  9.1743042047772035e-04  9.9999915832071518e-01  9.1743042047772035e-04  8.4167928484194530e-07 -9.1743042047772035e-04
1.100000000000000e-01  8.2644559797884468e-07 -9.0909015777672906e-04  9.9999917355440204e-01  9.0909015777672906e-04  9.9999917355440204e-01  9.0909015777672906e-04  8.2644559797884468e-07 -9.0909015777672906e-04
1.110000000000000e-01  8.1162177451361536e-07 -9.0090016971011309e-04  9.9999918837822543e-01  9.0090016971011309e-04  9.9999918837822543e-01  9.0090016971011309e-04  8.1162177451361536e-07 -9.0090016971011309e-04
1.120000000000000e-01  7.9719324203344860e-07 -8.9285643107746249e-04  9.9999920280675791e-01  8.9285643107746249e-04  9.9999920280675791e-01  8.9285643107746249e-04  7.9719324203344860e-07 -8.9285643107746249e-04
1.130000000000000e-01  7.8314607005554853e-07 -8.8495505916276983e-04  9.9999921685392990e-01  8.8495505916276983e-04  9.9999921685392990e-01  8.8495505916276983e-04  7.8314607005554853e-07 -8.8495505916276983e-04
1.140000000000000e-01  7.6946693639047681e-07 -8.7719230748514352e-04  9.9999923053306361e-01  8.7719230748514352e-04  9.9999923053306361e-01  8.7719230748514352e-04  7.6946693639047681e-07 -8.7719230748514352e-04
1.150000000000000e-01  7.5614309554397313e-07 -8.6956455987556905e-04  9.9999924385690442e-01  8.6956455987556905e-04  9.9999924385690442e-01  8.6956455987556905e-04  7.5614309554397313e-07 -8.6956455987556905e-04
1.160000000000000e-01  7.4316234901727930e-07 -8.6206832486004394e-04  9.9999925683765101e-01  8.6206832486004394e-04  9.9999925683765101e-01  8.6206832486004394e-04  7.4316234901727930e-07 -8.6206832486004394e-04
1.170000000000000e-01  7.3051301737671317e-07 -8.5470023033075437e-04  9.9999926948698259e-01  8.5470023033075437e-04  9.9999926948698259e-01  8.5470023033075437e-04  7.3051301737671317e-07 -8.5470023033075437e-04
1.180000000000000e-01  7.1818391397305805e-07 -8.4745701848820850e-04  9.9999928181608599e-01  8.4745701848820850e-04  9.9999928181608599e-01  8.4745701848820850e-04  7.1818391397305805e-07 -8.4745701848820850e-04
1.190000000000000e-01  7.0616432020032474e-07 -8.4033554103838640e-04  9.9999929383567976e-01  8.4033554103838640e-04  9.9999929383567976e-01  8.4033554103838640e-04  7.0616432020032474e-07 -8.4033554103838640e-04
1.200000000000000e-01  6.9444396219169297e-07 -8.3333275463003153e-04  9.9999930555603778e-01  8.3333275463003153e-04  9.9999930555603778e-01  8.3333275463003153e-04  6.9444396219169297e-07 -8.3333275463003153e-04
1.210000000000000e-01  6.8301298885800908e-07 -8.2644571651819100e-04  9.9999931698701117e-01  8.2644571651819100e-04  9.9999931698701117e-01  8.2644571651819100e-04  6.8301298885800908e-07 -8.2644571651819100e-04
1.220000000000000e-01  6.7186195118116692e-07 -8.1967158044102359e-04  9.9999932813804882e-01  8.1967158044102359e-04  9.9999932813804882e-01  8.1967158044102359e-04  6.7186195118116692e-07 -8.1967158044102359e-04
1.230000000000000e-01  6.6098178268108753e-07 -8.1300759269773771e-04  9.9999933901821736e-01  8.1300759269773771e-04  9.9999933901821736e-01  8.1300759269773771e-04  6.6098178268108753e-07 -8.1300759269773771e-04
1.240000000000000e-01  6.5036378098089164e-07 -8.0645108841630566e-04  9.9999934963621906e-01  8.0645108841630566e-04  9.9999934963621906e-01  8.0645108841630566e-04  6.5036378098089164e-07 -8.0645108841630566e-04
1.250000000000000e-01  6.3999959040026215e-07 -7.9999948800032767e-04  9.9999936000040957e-01  7.9999948800032767e-04  9.9999936000040957e-01  7.9999948800032767e-04  6.3999959040026215e-07 -7.9999948800032767e-04
1.260000000000000e-01  6.2988118551197693e-07 -7.9365029374509088e-04  9.9999937011881446e-01  7.9365029374509088e-04  9.9999937011881446e-01  7.9365029374509088e-04  6.2988118551197693e-07 -7.9365029374509088e-04
1.270000000000000e-01  6.2000085560118071e-07 -7.8740108661349954e-04  9.9999937999914434e-01  7.8740108661349954e-04  9.9999937999914434e-01  7.8740108661349954e-04  6.2000085560118071e-07 -7.8740108661349954e-04
1.280000000000000e-01  6.1035118997119748e-07 -7.8124952316313285e-04  9.9999938964881008e-01  7.8124952316313285e-04  9.9999938964881008e-01  7.8124952316313285e-04  6.1035118997119748e-07 -7.8124952316313285e-04
1.290000000000000e-01  6.0092506404358875e-07 -7.7519333261622946e-04  9.9999939907493596e-01  7.7519333261622946e-04  9.9999939907493596e-01  7.7519333261622946e-04  6.0092506404358875e-07 -7.7519333261622946e-04
1.300000000000000e-01  5.9171562620377148e-07 -7.6923031406490297e-04  9.9999940828437384e-01  7.6923031406490297e-04  9.9999940828437384e-01  7.6923031406490297e-04  5.9171562620377148e-07 -7.6923031406490297e-04
1.310000000000000e-01  5.8271628534684151e-07 -7.6335833380436230e-04  9.9999941728371466e-01  7.6335833380436230e-04  9.9999941728371466e-01  7.6335833380436230e-04  5.8271628534684151e-07 -7.6335833380436230e-04
1.320000000000000e-01  5.7392069908132516e-07 -7.5757532278734917e-04  9.9999942607930092e-01  7.5757532278734917e-04  9.9999942607930092e-01  7.5757532278734917e-04  5.7392069908132516e-07 -7.5757532278734917e-04
1.330000000000000e-01  5.6532276255143729e-07 -7.5187927419341158e-04  9.9999943467723740e-01  7.5187927419341158e-04  9.9999943467723740e-01  7.5187927419341158e-04  5.6532276255143729e-07 -7.5187927419341158e-04
1.340000000000000e-01  5.5691659784105711e-07 -7.4626824110701653e-04  9.9999944308340216e-01  7.4626824110701653e-04  9.9999944308340216e-01  7.4626824110701653e-04  5.5691659784105711e-07 -7.4626824110701653e-04
1.350000000000000e-01  5.4869654392507876e-07 -7.4074033429885632e-04  9.9999945130345602e-01  7.4074033429885632e-04  9.9999945130345602e-01  7.4074033429885632e-04  5.4869654392507876e-07 -7.4074033429885632e-04
1.360000000000000e-01  5.4065714713605800e-07 -7.3529372010503889e-04  9.9999945934285284e-01  7.3529372010503889e-04  9.9999945934285284e-01  7.3529372010503889e-04  5.4065714713605800e-07 -7.3529372010503889e-04
1.370000000000000e-01  5.3279315211617453e-07 -7.2992661839915902e-04  9.9999946720684785e-01  7.2992661839915902e-04  9.9999946720684785e-01  7.2992661839915902e-04  5.3279315211617453e-07 -7.2992661839915902e-04
1.380000000000000e-01  5.2509949322647906e-07 -7.2463730065254115e-04  9.9999947490050678e-01  7.2463730065254115e-04  9.9999947490050678e-01  7.2463730065254115e-04  5.2509949322647906e-07 -7.2463730065254115e-04
1.390000000000000e-01  5.1757128638720232e-07 -7.1942408807821126e-04  9.9999948242871362e-01  7.1942408807821126e-04  9.9999948242871362e-01  7.1942408807821126e-04  5.1757128638720232e-07 -7.1942408807821126e-04
1.400000000000000e-01  5.1020382132458101e-07 -7.1428534985441339e-04  9.9999948979617870e-01  7.1428534985441339e-04  9.9999948979617870e-01  7.1428534985441339e-04  5.1020382132458101e-07 -7.1428534985441339e-04
1.410000000000000e-01  5.0299255420122017e-07 -7.0921950142372044e-04  9.9999949700744584e-01  7.0921950142372044e-04  9.9999949700744584e-01  7.0921950142372044e-04  5.0299255420122017e-07 -7.0921950142372044e-04
1.420000000000000e-01  4.9593310060846028e-07 -7.0422500286401366e-04  9.9999950406689941e-01  7.0422500286401366e-04  9.9999950406689941e-01  7.0422500286401366e-04  4.9593310060846028e-07 -7.0422500286401366e-04
