! Mini-Circuits  
! S2P DATA File Format
! Type: MMIC Amplifier
! Model: ERA-3SM     Reference Data: RDF-1128B
! Note: All S Parameters are in dB deg format
! TEST CONDITIONS: INPUT POWER = -25dBm, Icc = 35mA, Vd = 3.12V @Temperature = +85degC
! 401 Frequency points
!
# MHz S DB R 50
!    FREQ       dB(S11)   PHS(S11)  dB(S21)   PHS(S21)  dB(S12)   PHS(S12)  dB(S22)   PHS(S22) 
   50.000000   -34.438    43.270    22.782   173.370   -25.504    -2.268   -25.216   167.100 
   60.000000   -34.635    31.064    22.790   172.132   -25.354    -4.140   -25.689   164.613 
   70.000000   -37.324    60.986    22.747   170.989   -25.465    -4.658   -25.560   166.151 
   80.000000   -35.146    61.259    22.761   169.755   -25.477    -4.192   -25.404   157.272 
   90.000000   -36.661    50.545    22.725   168.520   -25.570    -5.013   -25.479   158.116 
  100.000000   -35.143    51.809    22.720   167.212   -25.452    -6.382   -25.206   156.852 
  110.000000   -34.961    52.107    22.722   166.194   -25.331    -6.220   -24.775   153.395 
  120.000000   -34.234    56.639    22.700   164.931   -25.438    -7.023   -24.967   154.064 
  130.000000   -33.557    61.044    22.698   163.818   -25.470    -7.808   -24.531   150.354 
  140.000000   -33.436    63.465    22.700   162.618   -25.485    -8.103   -24.204   148.776 
  150.000000   -33.562    60.942    22.682   161.324   -25.455    -7.697   -24.493   146.285 
  160.000000   -33.280    61.688    22.666   160.123   -25.483    -8.659   -23.972   145.652 
  170.000000   -33.064    65.969    22.643   158.892   -25.571    -9.279   -23.721   143.703 
  180.000000   -32.767    65.349    22.645   157.747   -25.474    -9.958   -24.014   141.842 
  190.000000   -32.227    63.777    22.621   156.566   -25.377   -10.703   -23.675   139.080 
  200.000000   -32.033    62.342    22.621   155.386   -25.459   -11.658   -23.761   136.899 
  210.000000   -31.577    60.552    22.621   154.168   -25.428   -11.624   -23.610   135.923 
  220.000000   -31.596    61.380    22.590   152.982   -25.426   -11.950   -23.350   134.886 
  230.000000   -31.251    59.183    22.594   151.834   -25.443   -12.943   -23.349   132.495 
  240.000000   -31.048    60.266    22.552   150.657   -25.555   -12.735   -23.276   129.216 
  250.000000   -31.244    60.948    22.530   149.459   -25.418   -13.714   -23.325   127.799 
  260.000000   -30.411    54.981    22.526   148.275   -25.483   -14.496   -23.390   126.556 
  270.000000   -30.773    54.226    22.502   147.108   -25.447   -15.162   -23.181   123.841 
  280.000000   -30.017    49.474    22.508   145.885   -25.424   -14.800   -23.183   122.781 
  290.000000   -30.204    49.147    22.489   144.707   -25.464   -15.929   -23.245   120.401 
  300.000000   -30.078    46.282    22.463   143.554   -25.450   -16.798   -23.029   118.458 
  310.000000   -29.687    44.193    22.456   142.322   -25.417   -17.216   -22.905   117.549 
  320.000000   -29.271    44.975    22.447   141.163   -25.395   -17.235   -23.070   115.385 
  330.000000   -29.228    44.285    22.407   139.979   -25.354   -18.172   -22.927   113.411 
  340.000000   -28.941    42.092    22.394   138.824   -25.346   -18.902   -22.944   111.263 
  350.000000   -28.575    39.896    22.379   137.641   -25.394   -19.199   -22.936   109.292 
  360.000000   -28.251    39.750    22.351   136.494   -25.373   -19.745   -22.868   107.805 
  370.000000   -28.085    37.580    22.350   135.323   -25.405   -20.576   -22.901   106.189 
  380.000000   -27.573    34.874    22.335   134.188   -25.333   -21.027   -22.833   103.834 
  390.000000   -27.492    35.405    22.313   132.992   -25.319   -21.865   -22.681   102.575 
  400.000000   -27.191    35.154    22.297   131.886   -25.352   -22.067   -22.612   100.991 
  410.000000   -26.884    32.232    22.269   130.660   -25.358   -22.738   -22.609    99.329 
  420.000000   -26.701    32.792    22.246   129.521   -25.310   -23.469   -22.450    98.003 
  430.000000   -26.334    30.175    22.228   128.419   -25.337   -23.776   -22.497    95.399 
  440.000000   -26.081    29.714    22.207   127.270   -25.307   -24.291   -22.465    93.862 
  450.000000   -25.866    28.107    22.191   126.117   -25.321   -24.968   -22.392    92.767 
  460.000000   -25.834    26.576    22.176   124.952   -25.268   -25.180   -22.371    90.863 
  470.000000   -25.723    28.245    22.168   123.817   -25.312   -26.188   -21.999    90.855 
  480.000000   -25.211    27.548    22.128   122.628   -25.282   -26.368   -21.929    87.560 
  490.000000   -25.154    25.537    22.110   121.506   -25.255   -26.970   -21.996    86.261 
  500.000000   -24.951    24.914    22.078   120.382   -25.268   -27.724   -21.855    84.609 
  510.000000   -24.693    24.357    22.059   119.251   -25.261   -28.257   -21.763    84.007 
  520.000000   -24.604    23.010    22.039   118.065   -25.246   -28.942   -21.677    81.939 
  530.000000   -24.508    21.268    22.011   117.003   -25.220   -29.416   -21.611    80.624 
  540.000000   -24.148    19.675    22.002   115.863   -25.233   -30.060   -21.563    79.004 
  550.000000   -24.086    19.844    21.979   114.785   -25.265   -30.511   -21.403    77.947 
  560.000000   -24.036    19.580    21.954   113.664   -25.229   -31.471   -21.274    76.479 
  570.000000   -23.914    18.542    21.941   112.494   -25.223   -31.790   -21.296    75.093 
  580.000000   -23.820    17.750    21.901   111.386   -25.192   -32.521   -21.199    73.583 
  590.000000   -23.591    17.258    21.885   110.272   -25.206   -33.006   -21.010    72.331 
  600.000000   -23.451    16.369    21.862   109.179   -25.185   -33.486   -20.939    70.492 
  610.000000   -23.363    14.496    21.835   108.024   -25.185   -34.159   -20.915    69.085 
  620.000000   -23.279    14.075    21.815   106.914   -25.161   -34.785   -20.758    68.590 
  630.000000   -23.160    12.513    21.799   105.794   -25.152   -35.286   -20.742    66.715 
  640.000000   -22.959    12.802    21.772   104.725   -25.140   -35.825   -20.573    65.939 
  650.000000   -22.921    12.218    21.748   103.638   -25.120   -36.638   -20.467    64.725 
  660.000000   -22.795    10.947    21.724   102.525   -25.114   -37.258   -20.428    63.735 
  670.000000   -22.641    10.318    21.692   101.418   -25.141   -37.720   -20.257    62.164 
  680.000000   -22.556     8.756    21.673   100.279   -25.147   -38.174   -20.255    60.724 
  690.000000   -22.352     8.030    21.652    99.231   -25.081   -38.705   -20.181    59.401 
  700.000000   -22.364     7.207    21.616    98.139   -25.082   -39.411   -20.165    58.056 
  710.000000   -22.238     5.561    21.604    97.049   -25.072   -39.944   -20.140    56.737 
  720.000000   -22.070     5.654    21.580    95.953   -25.070   -40.665   -20.010    55.817 
  730.000000   -22.056     4.773    21.554    94.820   -25.069   -40.974   -19.938    54.447 
  740.000000   -21.819     3.666    21.541    93.746   -25.045   -41.647   -19.820    53.128 
  750.000000   -21.707     2.491    21.500    92.683   -25.067   -42.369   -19.816    52.312 
  760.000000   -21.634     1.612    21.477    91.594   -25.068   -42.946   -19.786    51.075 
  770.000000   -21.533     0.277    21.451    90.529   -25.016   -43.633   -19.724    49.550 
  780.000000   -21.318    -0.285    21.436    89.447   -25.020   -44.201   -19.615    48.628 
  790.000000   -21.264    -1.321    21.422    88.370   -25.005   -44.750   -19.581    47.364 
  800.000000   -21.139    -2.798    21.380    87.245   -25.001   -45.261   -19.541    45.968 
  810.000000   -20.940    -3.179    21.359    86.177   -24.980   -45.864   -19.427    45.210 
  820.000000   -20.909    -4.399    21.330    85.098   -24.996   -46.527   -19.497    43.400 
  830.000000   -20.798    -5.403    21.304    84.043   -24.965   -47.168   -19.416    42.097 
  840.000000   -20.650    -6.518    21.287    82.950   -24.993   -47.656   -19.344    40.743 
  850.000000   -20.571    -7.993    21.267    81.886   -24.949   -48.375   -19.370    39.393 
  860.000000   -20.549    -8.218    21.237    80.814   -24.967   -49.135   -19.256    38.880 
  870.000000   -20.448    -8.852    21.217    79.748   -24.947   -49.392   -19.187    37.671 
  880.000000   -20.332    -9.953    21.194    78.691   -24.919   -50.194   -19.149    36.369 
  890.000000   -20.256   -10.372    21.161    77.664   -24.919   -50.938   -19.091    35.234 
  900.000000   -20.151   -11.834    21.135    76.586   -24.914   -51.329   -19.068    33.853 
  910.000000   -20.029   -13.448    21.112    75.516   -24.910   -51.961   -19.033    32.200 
  920.000000   -19.945   -14.433    21.082    74.459   -24.884   -52.509   -18.973    31.024 
  930.000000   -19.873   -15.852    21.070    73.384   -24.886   -53.136   -18.951    29.551 
  940.000000   -19.814   -16.124    21.036    72.377   -24.877   -53.728   -18.845    28.527 
  950.000000   -19.702   -17.042    21.014    71.304   -24.867   -54.261   -18.771    27.498 
  960.000000   -19.676   -17.656    20.989    70.231   -24.853   -55.091   -18.747    26.356 
  970.000000   -19.577   -18.765    20.960    69.173   -24.858   -55.560   -18.646    25.396 
  980.000000   -19.547   -19.731    20.932    68.124   -24.847   -56.253   -18.607    24.041 
  990.000000   -19.445   -21.060    20.904    67.049   -24.839   -56.867   -18.594    22.785 
 1000.000000   -19.364   -22.133    20.876    66.027   -24.808   -57.403   -18.551    21.310 
 1010.000000   -19.360   -23.136    20.859    64.971   -24.825   -58.122   -18.494    20.186 
 1020.000000   -19.241   -24.444    20.833    63.904   -24.817   -58.569   -18.500    19.031 
 1030.000000   -19.219   -24.893    20.803    62.868   -24.804   -59.294   -18.417    17.906 
 1040.000000   -19.183   -25.958    20.787    61.841   -24.818   -59.857   -18.383    16.676 
 1050.000000   -19.107   -26.690    20.754    60.824   -24.786   -60.621   -18.309    15.656 
 1060.000000   -19.018   -27.496    20.722    59.784   -24.767   -61.274   -18.221    14.637 
 1070.000000   -18.989   -28.641    20.705    58.719   -24.774   -61.758   -18.234    13.671 
 1080.000000   -18.914   -29.779    20.671    57.676   -24.768   -62.408   -18.113    12.245 
 1090.000000   -18.872   -30.913    20.645    56.659   -24.728   -63.083   -18.067    11.099 
 1100.000000   -18.871   -32.013    20.626    55.635   -24.760   -63.539   -18.052     9.894 
 1110.000000   -18.813   -32.728    20.601    54.585   -24.738   -64.154   -17.985     9.261 
 1120.000000   -18.733   -33.388    20.578    53.599   -24.734   -64.847   -17.951     8.269 
 1130.000000   -18.707   -34.604    20.557    52.534   -24.713   -65.470   -17.892     6.924 
 1140.000000   -18.629   -35.312    20.526    51.498   -24.710   -66.013   -17.843     5.918 
 1150.000000   -18.589   -36.621    20.499    50.498   -24.697   -66.871   -17.824     4.777 
 1160.000000   -18.582   -37.873    20.478    49.498   -24.694   -67.256   -17.797     3.387 
 1170.000000   -18.515   -38.477    20.446    48.469   -24.691   -68.006   -17.714     2.595 
 1180.000000   -18.510   -39.433    20.425    47.394   -24.676   -68.607   -17.708     1.489 
 1190.000000   -18.480   -40.176    20.395    46.409   -24.690   -69.055   -17.630     0.386 
 1200.000000   -18.419   -40.747    20.370    45.386   -24.651   -69.888   -17.559    -0.216 
 1210.000000   -18.338   -41.774    20.358    44.329   -24.664   -70.218   -17.547    -1.413 
 1220.000000   -18.309   -42.659    20.321    43.356   -24.623   -71.020   -17.561    -2.254 
 1230.000000   -18.297   -43.158    20.291    42.334   -24.617   -71.442   -17.514    -3.193 
 1240.000000   -18.233   -44.745    20.265    41.348   -24.629   -72.123   -17.527    -4.570 
 1250.000000   -18.255   -45.717    20.236    40.346   -24.616   -73.027   -17.502    -5.665 
 1260.000000   -18.201   -46.525    20.215    39.310   -24.611   -73.531   -17.480    -6.720 
 1270.000000   -18.145   -47.929    20.197    38.300   -24.599   -74.042   -17.461    -7.950 
 1280.000000   -18.097   -48.322    20.171    37.270   -24.597   -74.965   -17.388    -8.724 
 1290.000000   -18.036   -48.911    20.148    36.296   -24.603   -75.341   -17.364    -9.576 
 1300.000000   -18.098   -50.575    20.118    35.257   -24.580   -76.101   -17.327   -10.733 
 1310.000000   -18.059   -50.775    20.090    34.288   -24.569   -76.605   -17.296   -11.601 
 1320.000000   -18.018   -52.341    20.063    33.250   -24.580   -77.180   -17.270   -12.616 
 1330.000000   -18.036   -53.023    20.039    32.291   -24.543   -77.825   -17.279   -13.976 
 1340.000000   -18.007   -53.907    20.011    31.277   -24.528   -78.596   -17.240   -14.709 
 1350.000000   -17.942   -54.865    19.994    30.240   -24.560   -79.181   -17.268   -15.991 
 1360.000000   -17.878   -55.765    19.965    29.242   -24.543   -79.882   -17.186   -16.752 
 1370.000000   -17.874   -56.638    19.945    28.251   -24.511   -80.617   -17.177   -17.990 
 1380.000000   -17.814   -57.950    19.920    27.238   -24.520   -80.933   -17.111   -18.958 
 1390.000000   -17.868   -58.840    19.892    26.256   -24.519   -81.631   -17.102   -20.213 
 1400.000000   -17.808   -59.830    19.866    25.241   -24.504   -82.239   -17.034   -20.886 
 1410.000000   -17.836   -61.144    19.840    24.222   -24.481   -82.969   -17.042   -22.146 
 1420.000000   -17.823   -61.693    19.813    23.263   -24.468   -83.667   -16.994   -23.226 
 1430.000000   -17.813   -62.779    19.796    22.253   -24.470   -84.298   -16.944   -24.337 
 1440.000000   -17.812   -63.922    19.776    21.269   -24.440   -84.997   -16.952   -25.342 
 1450.000000   -17.748   -64.632    19.746    20.258   -24.459   -85.636   -16.848   -25.909 
 1460.000000   -17.791   -65.604    19.726    19.290   -24.464   -86.094   -16.828   -27.120 
 1470.000000   -17.743   -66.617    19.694    18.272   -24.456   -86.702   -16.800   -28.089 
 1480.000000   -17.765   -67.383    19.664    17.273   -24.456   -87.408   -16.738   -29.024 
 1490.000000   -17.781   -69.049    19.635    16.287   -24.443   -88.054   -16.727   -30.272 
 1500.000000   -17.760   -69.795    19.611    15.335   -24.422   -88.760   -16.698   -31.347 
 1510.000000   -17.780   -70.394    19.601    14.263   -24.427   -89.387   -16.652   -31.847 
 1520.000000   -17.793   -70.768    19.566    13.269   -24.431   -90.047   -16.531   -32.613 
 1530.000000   -17.612   -71.793    19.529    12.276   -24.443   -90.263   -16.456   -34.254 
 1540.000000   -17.594   -73.699    19.496    11.348   -24.400   -91.086   -16.497   -35.673 
 1550.000000   -17.664   -74.844    19.470    10.407   -24.392   -91.799   -16.499   -36.646 
 1560.000000   -17.659   -75.928    19.457     9.455   -24.383   -92.316   -16.487   -37.286 
 1570.000000   -17.665   -77.010    19.441     8.488   -24.359   -92.999   -16.471   -38.505 
 1580.000000   -17.665   -77.524    19.411     7.450   -24.359   -93.856   -16.426   -39.148 
 1590.000000   -17.647   -78.405    19.391     6.514   -24.378   -94.269   -16.407   -40.132 
 1600.000000   -17.620   -79.514    19.361     5.502   -24.340   -94.950   -16.371   -41.203 
 1610.000000   -17.612   -80.262    19.327     4.556   -24.366   -95.518   -16.382   -42.050 
 1620.000000   -17.652   -82.010    19.307     3.595   -24.348   -96.257   -16.342   -43.216 
 1630.000000   -17.596   -83.282    19.280     2.609   -24.332   -96.941   -16.374   -44.203 
 1640.000000   -17.691   -83.952    19.256     1.659   -24.323   -97.433   -16.368   -45.098 
 1650.000000   -17.645   -84.997    19.241     0.674   -24.316   -98.095   -16.343   -46.010 
 1660.000000   -17.664   -86.134    19.216    -0.317   -24.334   -98.852   -16.334   -47.199 
 1670.000000   -17.620   -86.622    19.192    -1.273   -24.328   -99.447   -16.280   -47.699 
 1680.000000   -17.615   -87.687    19.174    -2.242   -24.321  -100.121   -16.298   -48.677 
 1690.000000   -17.661   -88.628    19.141    -3.207   -24.300  -100.725   -16.276   -49.813 
 1700.000000   -17.639   -89.774    19.118    -4.205   -24.297  -101.493   -16.236   -50.562 
 1710.000000   -17.612   -90.977    19.090    -5.166   -24.299  -102.034   -16.218   -51.880 
 1720.000000   -17.646   -92.242    19.058    -6.133   -24.288  -102.681   -16.210   -52.953 
 1730.000000   -17.619   -93.106    19.042    -7.106   -24.280  -103.359   -16.193   -53.838 
 1740.000000   -17.611   -94.519    19.022    -8.052   -24.268  -104.212   -16.180   -55.210 
 1750.000000   -17.585   -95.478    18.989    -9.032   -24.255  -104.522   -16.131   -55.846 
 1760.000000   -17.591   -96.474    18.971    -9.965   -24.229  -105.216   -16.143   -56.865 
 1770.000000   -17.609   -97.612    18.943   -10.955   -24.259  -105.882   -16.132   -57.866 
 1780.000000   -17.588   -98.678    18.918   -11.877   -24.217  -106.514   -16.121   -58.957 
 1790.000000   -17.637   -99.818    18.898   -12.827   -24.224  -107.280   -16.097   -59.992 
 1800.000000   -17.647  -101.073    18.872   -13.848   -24.197  -107.869   -16.111   -61.078 
 1810.000000   -17.640  -101.925    18.844   -14.806   -24.217  -108.426   -16.072   -61.859 
 1820.000000   -17.641  -103.264    18.825   -15.779   -24.195  -109.250   -16.020   -62.918 
 1830.000000   -17.594  -104.377    18.803   -16.719   -24.189  -109.674   -16.019   -64.147 
 1840.000000   -17.585  -105.330    18.777   -17.658   -24.202  -110.338   -15.981   -65.015 
 1850.000000   -17.613  -106.258    18.755   -18.615   -24.175  -111.075   -15.965   -65.870 
 1860.000000   -17.610  -107.943    18.731   -19.531   -24.153  -111.702   -15.934   -66.951 
 1870.000000   -17.640  -108.632    18.705   -20.535   -24.172  -112.428   -15.913   -67.954 
 1880.000000   -17.702  -109.965    18.681   -21.458   -24.167  -113.114   -15.917   -69.007 
 1890.000000   -17.667  -111.097    18.658   -22.421   -24.172  -113.633   -15.915   -70.093 
 1900.000000   -17.600  -112.032    18.636   -23.391   -24.144  -114.347   -15.902   -71.069 
 1910.000000   -17.621  -113.531    18.617   -24.333   -24.119  -114.785   -15.866   -71.929 
 1920.000000   -17.628  -114.800    18.589   -25.320   -24.141  -115.732   -15.849   -72.938 
 1930.000000   -17.713  -115.688    18.569   -26.258   -24.123  -116.372   -15.822   -73.877 
 1940.000000   -17.700  -117.042    18.547   -27.235   -24.131  -117.024   -15.791   -74.791 
 1950.000000   -17.684  -117.931    18.516   -28.156   -24.124  -117.494   -15.770   -75.663 
 1960.000000   -17.689  -118.619    18.490   -29.136   -24.118  -118.211   -15.746   -76.485 
 1970.000000   -17.718  -120.240    18.464   -30.068   -24.101  -118.844   -15.747   -77.634 
 1980.000000   -17.716  -121.229    18.440   -30.994   -24.130  -119.335   -15.720   -78.478 
 1990.000000   -17.727  -122.487    18.422   -31.985   -24.109  -120.147   -15.680   -79.230 
 2000.000000   -17.705  -123.793    18.401   -32.922   -24.097  -120.810   -15.677   -80.398 
 2010.000000   -17.685  -124.698    18.379   -33.825   -24.102  -121.462   -15.653   -81.057 
 2020.000000   -17.719  -125.668    18.362   -34.790   -24.065  -122.104   -15.648   -81.995 
 2030.000000   -17.732  -126.720    18.341   -35.717   -24.069  -122.729   -15.647   -82.826 
 2040.000000   -17.734  -127.720    18.305   -36.686   -24.103  -123.241   -15.594   -83.736 
 2050.000000   -17.751  -129.117    18.283   -37.607   -24.086  -123.992   -15.577   -84.592 
 2060.000000   -17.754  -130.303    18.255   -38.568   -24.059  -124.720   -15.576   -85.704 
 2070.000000   -17.730  -131.498    18.235   -39.523   -24.047  -125.348   -15.565   -86.484 
 2080.000000   -17.696  -132.522    18.216   -40.474   -24.013  -125.860   -15.567   -87.421 
 2090.000000   -17.735  -134.001    18.195   -41.388   -24.012  -126.629   -15.566   -88.404 
 2100.000000   -17.757  -134.734    18.173   -42.346   -24.031  -127.327   -15.550   -89.078 
 2110.000000   -17.739  -135.830    18.151   -43.258   -24.013  -127.906   -15.561   -90.021 
 2120.000000   -17.768  -136.868    18.125   -44.208   -24.035  -128.500   -15.567   -91.006 
