! Mini-Circuits  
! S2P DATA File Format
! Type: MMIC Amplifier
! Model: ERA-3SM     Reference Data: RDF-1128B
! Note: All S Parameters are in dB deg format
! TEST CONDITIONS: INPUT POWER = -25dBm, Icc = 42mA, Vd = 3.14V @Temperature = +85degC
! 401 Frequency points
!
# MHz S DB R 50
!    FREQ       dB(S11)   PHS(S11)  dB(S21)   PHS(S21)  dB(S12)   PHS(S12)  dB(S22)   PHS(S22) 
   50.000000   -33.769   134.013    23.073   173.309   -26.039    -2.812   -21.792   167.341 
   60.000000   -34.743   131.226    23.072   172.075   -25.696    -5.432   -21.716   166.920 
   70.000000   -31.494   143.602    23.033   170.961   -25.810    -4.410   -21.577   166.495 
   80.000000   -31.357   134.414    23.047   169.624   -25.658    -4.995   -21.599   163.233 
   90.000000   -32.027   135.617    23.004   168.430   -25.751    -5.325   -21.342   161.953 
  100.000000   -31.501   127.805    23.013   167.146   -25.866    -5.123   -21.249   160.649 
  110.000000   -31.382   128.779    23.007   166.065   -25.762    -5.737   -21.093   157.474 
  120.000000   -30.641   126.624    22.982   164.828   -25.679    -7.061   -21.127   157.291 
  130.000000   -30.089   123.097    22.977   163.730   -25.691    -6.543   -21.032   155.258 
  140.000000   -29.602   121.740    22.975   162.511   -25.703    -7.375   -20.895   153.541 
  150.000000   -29.775   120.648    22.960   161.231   -25.832    -8.612   -21.007   151.148 
  160.000000   -29.857   116.067    22.954   160.002   -25.736    -9.033   -20.615   149.920 
  170.000000   -29.144   119.111    22.925   158.777   -25.711    -9.882   -20.474   148.269 
  180.000000   -28.841   117.055    22.917   157.638   -25.769    -9.542   -20.591   147.227 
  190.000000   -28.661   113.548    22.904   156.440   -25.653   -10.309   -20.497   144.694 
  200.000000   -28.563   113.546    22.895   155.275   -25.683   -10.537   -20.491   143.107 
  210.000000   -28.449   108.168    22.894   154.031   -25.738   -11.269   -20.482   141.907 
  220.000000   -28.274   108.097    22.869   152.830   -25.802   -11.794   -20.417   139.960 
  230.000000   -28.335   106.252    22.862   151.699   -25.719   -12.776   -20.388   137.879 
  240.000000   -28.274   104.813    22.828   150.521   -25.713   -12.828   -20.336   135.693 
  250.000000   -28.163   103.916    22.808   149.304   -25.734   -13.758   -20.429   134.178 
  260.000000   -27.915    99.106    22.800   148.149   -25.717   -14.260   -20.392   132.927 
  270.000000   -28.186    99.094    22.779   146.970   -25.760   -14.315   -20.228   131.248 
  280.000000   -27.930    92.331    22.785   145.747   -25.761   -15.029   -20.242   129.610 
  290.000000   -28.009    94.463    22.756   144.555   -25.745   -15.889   -20.346   127.807 
  300.000000   -27.988    90.495    22.734   143.385   -25.645   -15.987   -20.267   126.006 
  310.000000   -27.995    87.001    22.737   142.160   -25.710   -16.605   -20.249   124.501 
  320.000000   -27.580    85.527    22.711   141.025   -25.656   -17.080   -20.297   123.272 
  330.000000   -27.695    82.514    22.680   139.817   -25.642   -17.684   -20.247   121.156 
  340.000000   -27.432    81.132    22.666   138.661   -25.639   -18.244   -20.218   119.278 
  350.000000   -27.292    77.848    22.644   137.469   -25.670   -18.422   -20.182   118.155 
  360.000000   -26.938    75.392    22.627   136.310   -25.697   -19.410   -20.115   116.582 
  370.000000   -26.974    74.317    22.617   135.163   -25.613   -19.974   -20.210   114.871 
  380.000000   -26.619    70.446    22.601   133.997   -25.601   -20.445   -20.161   112.946 
  390.000000   -26.490    69.389    22.583   132.796   -25.624   -21.049   -20.140   111.348 
  400.000000   -26.196    68.483    22.560   131.699   -25.563   -21.668   -20.126   109.700 
  410.000000   -26.157    64.569    22.538   130.480   -25.567   -22.101   -20.033   108.546 
  420.000000   -25.896    62.852    22.516   129.334   -25.572   -22.725   -20.039   106.767 
  430.000000   -25.671    60.922    22.497   128.217   -25.619   -23.329   -19.986   104.981 
  440.000000   -25.404    59.155    22.473   127.077   -25.617   -23.688   -19.951   103.529 
  450.000000   -25.343    56.617    22.462   125.919   -25.582   -24.405   -19.994   102.050 
  460.000000   -25.223    56.082    22.440   124.732   -25.593   -24.936   -19.928   100.446 
  470.000000   -24.997    56.738    22.426   123.616   -25.589   -25.711   -19.724    99.895 
  480.000000   -24.589    53.657    22.393   122.419   -25.577   -25.869   -19.741    96.509 
  490.000000   -24.494    52.218    22.360   121.302   -25.523   -26.549   -19.777    95.646 
  500.000000   -24.340    50.079    22.343   120.162   -25.511   -27.163   -19.668    93.866 
  510.000000   -24.189    48.025    22.320   119.051   -25.502   -27.571   -19.569    93.026 
  520.000000   -24.084    47.230    22.296   117.872   -25.490   -28.239   -19.485    91.384 
  530.000000   -24.009    45.359    22.272   116.795   -25.520   -28.849   -19.452    90.139 
  540.000000   -23.757    43.311    22.257   115.667   -25.506   -29.261   -19.433    88.449 
  550.000000   -23.567    43.056    22.234   114.576   -25.485   -29.788   -19.356    87.158 
  560.000000   -23.547    42.202    22.213   113.443   -25.479   -30.389   -19.338    85.507 
  570.000000   -23.433    41.240    22.191   112.278   -25.467   -30.955   -19.357    84.196 
  580.000000   -23.279    39.556    22.155   111.134   -25.478   -31.783   -19.209    82.819 
  590.000000   -23.142    37.775    22.137   110.017   -25.450   -32.062   -19.119    81.290 
  600.000000   -22.936    37.269    22.115   108.940   -25.451   -32.766   -19.033    79.792 
  610.000000   -22.921    35.515    22.090   107.788   -25.423   -33.402   -19.010    78.540 
  620.000000   -22.778    34.192    22.074   106.694   -25.473   -33.885   -18.921    77.322 
  630.000000   -22.702    33.592    22.050   105.571   -25.430   -34.435   -18.909    75.841 
  640.000000   -22.540    32.243    22.019   104.476   -25.409   -34.874   -18.840    74.661 
  650.000000   -22.448    31.551    21.998   103.399   -25.398   -35.473   -18.794    73.159 
  660.000000   -22.313    30.254    21.966   102.281   -25.375   -36.126   -18.706    72.331 
  670.000000   -22.194    28.433    21.943   101.186   -25.358   -36.951   -18.594    70.600 
  680.000000   -22.135    27.162    21.919   100.041   -25.343   -37.265   -18.601    69.365 
  690.000000   -21.929    26.356    21.893    98.993   -25.352   -38.021   -18.504    68.249 
  700.000000   -21.932    24.948    21.869    97.899   -25.345   -38.520   -18.490    66.933 
  710.000000   -21.786    24.230    21.847    96.799   -25.322   -39.095   -18.470    65.476 
  720.000000   -21.608    22.988    21.829    95.718   -25.328   -39.743   -18.450    64.273 
  730.000000   -21.618    21.694    21.800    94.594   -25.318   -40.102   -18.428    62.577 
  740.000000   -21.395    20.613    21.774    93.482   -25.311   -40.804   -18.283    61.565 
  750.000000   -21.313    18.789    21.749    92.452   -25.272   -41.340   -18.257    60.812 
  760.000000   -21.223    18.139    21.718    91.335   -25.276   -41.887   -18.240    59.515 
  770.000000   -21.118    16.852    21.693    90.293   -25.259   -42.458   -18.197    58.048 
  780.000000   -20.936    15.224    21.674    89.195   -25.289   -43.033   -18.164    56.720 
  790.000000   -20.870    14.281    21.656    88.126   -25.218   -43.750   -18.150    55.385 
  800.000000   -20.774    12.540    21.620    87.003   -25.241   -44.392   -18.081    54.216 
  810.000000   -20.600    11.273    21.601    85.939   -25.238   -44.909   -18.041    53.132 
  820.000000   -20.547    10.505    21.573    84.871   -25.237   -45.500   -18.058    51.738 
  830.000000   -20.449     9.275    21.546    83.789   -25.244   -46.252   -17.982    50.546 
  840.000000   -20.304     7.729    21.529    82.707   -25.224   -46.548   -17.996    48.974 
  850.000000   -20.235     6.788    21.499    81.640   -25.191   -47.198   -17.969    47.863 
  860.000000   -20.193     5.913    21.473    80.579   -25.198   -48.016   -17.932    46.826 
  870.000000   -20.085     4.949    21.454    79.521   -25.154   -48.516   -17.904    45.445 
  880.000000   -19.948     3.805    21.423    78.458   -25.152   -49.165   -17.835    44.209 
  890.000000   -19.901     2.643    21.396    77.417   -25.176   -49.686   -17.811    42.991 
  900.000000   -19.804     1.410    21.371    76.350   -25.124   -50.270   -17.776    41.792 
  910.000000   -19.710    -0.111    21.345    75.289   -25.107   -50.892   -17.749    40.382 
  920.000000   -19.624    -1.631    21.321    74.234   -25.102   -51.506   -17.719    39.002 
  930.000000   -19.573    -2.443    21.299    73.168   -25.127   -52.058   -17.701    37.568 
  940.000000   -19.493    -3.173    21.266    72.169   -25.106   -52.655   -17.636    36.259 
  950.000000   -19.391    -4.647    21.248    71.063   -25.076   -53.298   -17.635    35.050 
  960.000000   -19.348    -5.121    21.215    70.028   -25.061   -53.973   -17.596    33.923 
  970.000000   -19.262    -6.721    21.190    68.938   -25.056   -54.441   -17.488    33.125 
  980.000000   -19.247    -7.935    21.160    67.881   -25.048   -55.101   -17.467    31.620 
  990.000000   -19.130    -9.063    21.135    66.861   -25.066   -55.736   -17.438    30.605 
 1000.000000   -19.071   -10.357    21.104    65.781   -25.030   -56.400   -17.410    29.189 
 1010.000000   -19.066   -11.269    21.084    64.744   -25.035   -56.858   -17.400    27.790 
 1020.000000   -18.969   -12.364    21.056    63.666   -25.000   -57.503   -17.390    26.632 
 1030.000000   -18.929   -13.506    21.028    62.652   -25.007   -58.094   -17.354    25.230 
 1040.000000   -18.873   -14.358    21.010    61.624   -24.999   -58.578   -17.355    23.933 
 1050.000000   -18.829   -15.308    20.974    60.606   -24.978   -59.315   -17.258    23.080 
 1060.000000   -18.748   -16.716    20.948    59.564   -24.993   -59.989   -17.202    21.725 
 1070.000000   -18.706   -17.431    20.928    58.508   -25.004   -60.694   -17.188    21.053 
 1080.000000   -18.639   -18.735    20.892    57.474   -24.984   -61.043   -17.083    19.715 
 1090.000000   -18.601   -20.092    20.872    56.426   -24.935   -61.754   -17.064    18.359 
 1100.000000   -18.577   -20.646    20.845    55.430   -24.941   -62.359   -17.046    17.171 
 1110.000000   -18.534   -21.830    20.819    54.367   -24.930   -63.020   -17.033    16.301 
 1120.000000   -18.464   -22.763    20.802    53.391   -24.906   -63.722   -17.009    15.101 
 1130.000000   -18.446   -23.885    20.766    52.317   -24.922   -64.320   -16.943    13.817 
 1140.000000   -18.356   -25.044    20.745    51.293   -24.880   -64.786   -16.911    12.824 
 1150.000000   -18.334   -26.270    20.716    50.302   -24.895   -65.539   -16.897    11.649 
 1160.000000   -18.328   -27.345    20.691    49.286   -24.861   -66.069   -16.860    10.596 
 1170.000000   -18.261   -28.149    20.665    48.238   -24.865   -66.795   -16.794     9.586 
 1180.000000   -18.233   -28.972    20.642    47.193   -24.861   -67.360   -16.797     8.275 
 1190.000000   -18.179   -29.602    20.608    46.201   -24.827   -67.874   -16.729     7.260 
 1200.000000   -18.145   -30.727    20.585    45.196   -24.832   -68.660   -16.692     6.256 
 1210.000000   -18.066   -31.732    20.566    44.146   -24.822   -69.170   -16.691     5.166 
 1220.000000   -18.033   -32.699    20.534    43.151   -24.822   -69.909   -16.676     4.505 
 1230.000000   -18.039   -33.709    20.505    42.147   -24.818   -70.559   -16.661     3.295 
 1240.000000   -17.973   -34.805    20.479    41.169   -24.849   -71.092   -16.640     2.183 
 1250.000000   -17.996   -35.914    20.450    40.144   -24.816   -71.577   -16.626     1.173 
 1260.000000   -17.923   -36.815    20.429    39.135   -24.785   -72.401   -16.635    -0.021 
 1270.000000   -17.876   -37.826    20.402    38.118   -24.794   -72.934   -16.613    -1.125 
 1280.000000   -17.832   -38.819    20.382    37.084   -24.772   -73.680   -16.563    -2.306 
 1290.000000   -17.770   -39.608    20.358    36.125   -24.756   -74.233   -16.584    -3.401 
 1300.000000   -17.844   -40.927    20.320    35.090   -24.742   -74.702   -16.534    -4.296 
 1310.000000   -17.794   -41.736    20.297    34.113   -24.747   -75.369   -16.494    -5.349 
 1320.000000   -17.768   -42.886    20.273    33.085   -24.737   -76.034   -16.475    -6.146 
 1330.000000   -17.761   -43.637    20.242    32.123   -24.728   -76.675   -16.468    -7.370 
 1340.000000   -17.738   -44.647    20.223    31.112   -24.730   -77.427   -16.444    -8.259 
 1350.000000   -17.668   -45.367    20.199    30.086   -24.722   -77.909   -16.482    -9.439 
 1360.000000   -17.606   -46.428    20.170    29.109   -24.674   -78.720   -16.425   -10.511 
 1370.000000   -17.618   -47.615    20.150    28.097   -24.680   -79.291   -16.436   -11.901 
 1380.000000   -17.553   -48.887    20.122    27.093   -24.690   -79.845   -16.382   -12.826 
 1390.000000   -17.593   -49.938    20.095    26.119   -24.684   -80.628   -16.353   -14.007 
 1400.000000   -17.559   -51.040    20.072    25.070   -24.668   -80.998   -16.320   -14.807 
 1410.000000   -17.591   -52.120    20.041    24.086   -24.654   -81.681   -16.303   -15.882 
 1420.000000   -17.564   -52.801    20.020    23.128   -24.655   -82.375   -16.237   -16.959 
 1430.000000   -17.568   -53.800    19.999    22.119   -24.636   -82.999   -16.227   -18.256 
 1440.000000   -17.544   -54.695    19.976    21.127   -24.631   -83.636   -16.220   -19.084 
 1450.000000   -17.501   -55.852    19.948    20.122   -24.638   -84.311   -16.182   -20.150 
 1460.000000   -17.547   -56.759    19.923    19.141   -24.614   -85.015   -16.170   -21.326 
 1470.000000   -17.504   -57.792    19.891    18.149   -24.576   -85.459   -16.100   -22.202 
 1480.000000   -17.528   -59.035    19.865    17.140   -24.599   -86.278   -16.073   -23.259 
 1490.000000   -17.513   -60.070    19.836    16.172   -24.564   -86.794   -16.037   -24.416 
 1500.000000   -17.518   -60.930    19.809    15.176   -24.587   -87.380   -16.006   -25.262 
 1510.000000   -17.530   -61.484    19.795    14.178   -24.573   -88.079   -15.994   -26.222 
 1520.000000   -17.513   -62.094    19.766    13.151   -24.583   -88.750   -15.879   -26.950 
 1530.000000   -17.363   -63.471    19.726    12.162   -24.569   -89.135   -15.840   -28.735 
 1540.000000   -17.374   -65.106    19.694    11.239   -24.517   -89.723   -15.866   -29.900 
 1550.000000   -17.418   -66.368    19.668    10.300   -24.521   -90.369   -15.855   -30.817 
 1560.000000   -17.418   -67.379    19.657     9.335   -24.539   -91.148   -15.872   -31.690 
 1570.000000   -17.418   -68.074    19.631     8.360   -24.511   -91.862   -15.837   -32.786 
 1580.000000   -17.426   -68.994    19.605     7.374   -24.531   -92.329   -15.828   -33.665 
 1590.000000   -17.407   -69.880    19.587     6.426   -24.495   -93.123   -15.822   -34.752 
 1600.000000   -17.385   -70.879    19.551     5.421   -24.485   -93.774   -15.785   -35.754 
 1610.000000   -17.387   -72.121    19.522     4.461   -24.480   -94.542   -15.796   -36.618 
 1620.000000   -17.432   -73.628    19.498     3.518   -24.503   -94.952   -15.766   -37.678 
 1630.000000   -17.390   -74.804    19.471     2.504   -24.473   -95.553   -15.765   -38.517 
 1640.000000   -17.450   -75.637    19.453     1.576   -24.446   -96.197   -15.762   -39.515 
 1650.000000   -17.424   -76.488    19.429     0.587   -24.448   -96.906   -15.767   -40.566 
 1660.000000   -17.438   -77.470    19.406    -0.391   -24.425   -97.642   -15.746   -41.690 
 1670.000000   -17.411   -78.440    19.384    -1.337   -24.422   -98.148   -15.726   -42.471 
 1680.000000   -17.401   -79.258    19.361    -2.289   -24.426   -98.674   -15.739   -43.455 
 1690.000000   -17.454   -80.225    19.330    -3.258   -24.409   -99.398   -15.704   -44.361 
 1700.000000   -17.425   -81.743    19.304    -4.278   -24.399  -100.283   -15.679   -45.437 
 1710.000000   -17.405   -82.674    19.282    -5.210   -24.418  -100.887   -15.647   -46.436 
 1720.000000   -17.440   -83.720    19.252    -6.203   -24.405  -101.351   -15.646   -47.483 
 1730.000000   -17.425   -84.970    19.232    -7.146   -24.386  -102.016   -15.646   -48.544 
 1740.000000   -17.419   -85.862    19.210    -8.114   -24.402  -102.489   -15.647   -49.706 
 1750.000000   -17.391   -87.137    19.180    -9.074   -24.383  -103.389   -15.622   -50.546 
 1760.000000   -17.402   -88.272    19.161    -9.986   -24.340  -103.828   -15.646   -51.730 
 1770.000000   -17.401   -89.221    19.125   -11.018   -24.351  -104.561   -15.636   -52.657 
 1780.000000   -17.420   -90.583    19.104   -11.903   -24.311  -105.229   -15.614   -53.726 
 1790.000000   -17.459   -91.741    19.080   -12.861   -24.333  -105.845   -15.603   -54.724 
 1800.000000   -17.476   -92.770    19.060   -13.854   -24.330  -106.364   -15.587   -55.732 
 1810.000000   -17.456   -93.654    19.038   -14.834   -24.310  -107.098   -15.564   -56.592 
 1820.000000   -17.485   -94.945    19.014   -15.806   -24.303  -107.911   -15.541   -57.746 
 1830.000000   -17.417   -95.856    18.989   -16.723   -24.303  -108.618   -15.542   -58.864 
 1840.000000   -17.433   -97.195    18.962   -17.694   -24.320  -108.982   -15.520   -59.987 
 1850.000000   -17.436   -98.112    18.941   -18.619   -24.305  -109.766   -15.510   -60.883 
 1860.000000   -17.475   -99.676    18.908   -19.550   -24.278  -110.322   -15.462   -61.959 
 1870.000000   -17.491  -100.666    18.888   -20.528   -24.272  -111.133   -15.463   -62.955 
 1880.000000   -17.556  -101.791    18.864   -21.454   -24.272  -111.763   -15.463   -63.995 
 1890.000000   -17.522  -102.854    18.839   -22.422   -24.254  -112.318   -15.454   -64.967 
 1900.000000   -17.490  -104.046    18.821   -23.406   -24.252  -112.965   -15.440   -66.017 
 1910.000000   -17.474  -105.170    18.797   -24.326   -24.265  -113.537   -15.416   -66.921 
 1920.000000   -17.504  -106.408    18.769   -25.329   -24.276  -114.349   -15.421   -68.004 
 1930.000000   -17.572  -107.457    18.752   -26.211   -24.247  -114.687   -15.401   -69.065 
 1940.000000   -17.590  -108.829    18.727   -27.202   -24.238  -115.456   -15.366   -70.063 
 1950.000000   -17.583  -109.821    18.699   -28.125   -24.232  -116.300   -15.332   -70.784 
 1960.000000   -17.573  -110.713    18.678   -29.100   -24.222  -116.817   -15.324   -71.770 
 1970.000000   -17.602  -112.060    18.649   -30.039   -24.208  -117.312   -15.311   -72.721 
 1980.000000   -17.605  -112.966    18.621   -30.978   -24.195  -118.043   -15.286   -73.498 
 1990.000000   -17.627  -114.311    18.607   -31.940   -24.240  -118.678   -15.258   -74.437 
 2000.000000   -17.617  -115.316    18.581   -32.878   -24.183  -119.491   -15.263   -75.479 
 2010.000000   -17.617  -116.584    18.558   -33.776   -24.168  -120.057   -15.258   -76.358 
 2020.000000   -17.640  -117.506    18.539   -34.735   -24.177  -120.747   -15.260   -77.377 
 2030.000000   -17.651  -118.495    18.514   -35.698   -24.190  -121.420   -15.231   -78.162 
 2040.000000   -17.653  -119.742    18.487   -36.627   -24.148  -121.998   -15.190   -79.134 
 2050.000000   -17.661  -120.917    18.461   -37.578   -24.144  -122.697   -15.172   -80.000 
 2060.000000   -17.683  -122.160    18.432   -38.526   -24.161  -123.400   -15.173   -80.840 
 2070.000000   -17.675  -123.431    18.411   -39.489   -24.116  -124.115   -15.165   -81.789 
 2080.000000   -17.623  -124.307    18.394   -40.397   -24.131  -124.406   -15.181   -82.725 
 2090.000000   -17.693  -125.464    18.368   -41.355   -24.128  -125.221   -15.159   -83.690 
 2100.000000   -17.695  -126.696    18.347   -42.281   -24.102  -126.110   -15.171   -84.596 
 2110.000000   -17.699  -127.623    18.326   -43.193   -24.128  -126.501   -15.188   -85.650 
 2120.000000   -17.707  -128.606    18.301   -44.124   -24.098  -127.181   -15.179   -86.342 
