! Mini-Circuits  
! S2P DATA File Format
! Type: MMIC Amplifier
! Model: ERA-3SM     Reference Data: RDF-1128B
! Note: All S Parameters are in dB deg format
! TEST CONDITIONS: INPUT POWER = -25dBm, Icc = 28mA, Vd = 3.39V @Temperature = -45degC
! 401 Frequency points
!
# MHz S DB R 50
!    FREQ       dB(S11)   PHS(S11)  dB(S21)   PHS(S21)  dB(S12)   PHS(S12)  dB(S22)   PHS(S22) 
   50.000000   -28.129    10.692    22.742   173.313   -25.581    -3.107   -28.746   157.281 
   60.000000   -27.195     2.642    22.736   172.151   -25.147    -3.765   -30.750   153.463 
   70.000000   -29.070     2.624    22.707   171.004   -25.220    -4.386   -31.575   154.640 
   80.000000   -28.177     3.916    22.719   169.702   -25.392    -4.451   -31.211   143.490 
   90.000000   -28.197     0.093    22.681   168.551   -25.411    -5.887   -30.849   145.092 
  100.000000   -27.604     0.742    22.697   167.213   -25.377    -6.630   -31.208   144.904 
  110.000000   -27.418     0.560    22.693   166.130   -25.245    -6.679   -29.969   139.547 
  120.000000   -27.170     2.917    22.670   164.898   -25.365    -7.642   -30.976   138.196 
  130.000000   -26.878     5.559    22.678   163.795   -25.333    -7.652   -30.936   134.111 
  140.000000   -26.611     5.075    22.674   162.563   -25.420    -8.922   -30.459   132.496 
  150.000000   -26.326     3.120    22.654   161.280   -25.373    -9.146   -31.439   125.726 
  160.000000   -26.066     4.428    22.650   160.037   -25.285    -9.250   -30.503   127.672 
  170.000000   -26.226     5.199    22.628   158.816   -25.358    -9.946   -30.124   128.281 
  180.000000   -26.474     8.205    22.625   157.644   -25.291   -10.973   -30.725   123.860 
  190.000000   -26.273     8.468    22.620   156.421   -25.298   -11.371   -30.055   123.538 
  200.000000   -26.061     9.253    22.608   155.254   -25.334   -11.880   -29.748   121.306 
  210.000000   -25.729     9.975    22.611   153.984   -25.321   -12.895   -29.694   120.553 
  220.000000   -25.913     9.724    22.593   152.780   -25.325   -13.318   -29.251   121.059 
  230.000000   -25.581     9.641    22.576   151.635   -25.286   -14.046   -29.305   117.845 
  240.000000   -25.838    11.447    22.548   150.415   -25.305   -14.301   -29.053   112.946 
  250.000000   -25.951    11.164    22.532   149.229   -25.143   -15.513   -29.064   111.754 
  260.000000   -25.495    12.842    22.525   148.024   -25.317   -15.158   -28.863   111.967 
  270.000000   -25.899    12.750    22.518   146.840   -25.290   -16.679   -28.274   110.648 
  280.000000   -25.521    12.457    22.522   145.591   -25.299   -16.853   -27.966   112.200 
  290.000000   -25.741    13.000    22.498   144.383   -25.211   -17.460   -27.860   110.324 
  300.000000   -25.746    12.749    22.476   143.221   -25.269   -18.499   -27.534   108.193 
  310.000000   -25.476    10.943    22.475   141.968   -25.259   -18.767   -27.034   107.688 
  320.000000   -25.532    13.111    22.453   140.786   -25.284   -19.505   -27.255   104.937 
  330.000000   -25.572    12.431    22.425   139.590   -25.245   -19.667   -27.002   103.177 
  340.000000   -25.482    12.243    22.413   138.424   -25.231   -20.726   -26.767   101.513 
  350.000000   -25.518    13.145    22.393   137.224   -25.246   -21.363   -26.618   100.098 
  360.000000   -25.465    14.523    22.388   136.058   -25.187   -22.102   -26.191    99.807 
  370.000000   -25.459    13.255    22.384   134.875   -25.185   -22.750   -26.122    98.802 
  380.000000   -25.163    12.911    22.364   133.664   -25.251   -23.090   -25.917    96.091 
  390.000000   -25.298    13.101    22.354   132.451   -25.141   -23.740   -25.622    95.459 
  400.000000   -25.146    12.794    22.330   131.350   -25.162   -24.229   -25.543    93.495 
  410.000000   -24.979    11.013    22.308   130.120   -25.195   -25.056   -25.448    91.389 
  420.000000   -24.859    11.694    22.290   128.971   -25.109   -25.480   -25.300    90.249 
  430.000000   -24.732    10.505    22.273   127.823   -25.149   -26.177   -25.126    87.909 
  440.000000   -24.658    11.975    22.250   126.631   -25.142   -26.826   -25.028    85.753 
  450.000000   -24.621    10.541    22.248   125.456   -25.138   -27.263   -24.721    85.961 
  460.000000   -24.661     9.349    22.223   124.278   -25.153   -28.076   -24.543    84.620 
  470.000000   -24.623    10.629    22.206   123.156   -25.131   -28.404   -24.377    83.720 
  480.000000   -24.865    13.003    22.218   121.888   -25.173   -29.091   -23.625    84.011 
  490.000000   -24.309     8.962    22.156   120.756   -25.133   -29.997   -24.066    78.925 
  500.000000   -24.254     8.893    22.141   119.597   -25.143   -30.483   -23.850    77.141 
  510.000000   -24.044     7.863    22.120   118.459   -25.166   -30.944   -23.676    76.936 
  520.000000   -24.127     7.079    22.094   117.249   -25.092   -31.988   -23.524    74.826 
  530.000000   -24.119     6.085    22.083   116.139   -25.079   -32.267   -23.346    73.642 
  540.000000   -23.845     4.993    22.070   114.989   -25.093   -32.651   -23.136    72.531 
  550.000000   -23.928     5.432    22.047   113.875   -25.100   -33.557   -23.014    71.428 
  560.000000   -23.896     4.076    22.035   112.731   -25.038   -33.943   -22.816    69.989 
  570.000000   -23.865     3.148    22.010   111.549   -25.075   -34.801   -22.900    67.997 
  580.000000   -23.810     2.045    21.980   110.395   -25.048   -35.487   -22.714    66.283 
  590.000000   -23.623     1.273    21.965   109.252   -25.062   -36.145   -22.521    64.695 
  600.000000   -23.513     1.071    21.940   108.130   -25.071   -36.883   -22.342    62.969 
  610.000000   -23.519     0.154    21.924   106.957   -25.030   -37.408   -22.263    61.512 
  620.000000   -23.455    -0.481    21.907   105.821   -25.020   -38.076   -22.000    61.524 
  630.000000   -23.405    -2.074    21.887   104.656   -25.026   -38.463   -21.934    59.619 
  640.000000   -23.251    -2.021    21.863   103.565   -25.008   -39.155   -21.798    58.438 
  650.000000   -23.189    -3.537    21.844   102.434   -24.995   -39.945   -21.637    57.399 
  660.000000   -23.086    -4.942    21.809   101.291   -25.001   -40.493   -21.659    55.404 
  670.000000   -22.902    -5.515    21.789   100.162   -24.984   -41.097   -21.469    53.659 
  680.000000   -22.858    -7.416    21.770    99.023   -24.969   -41.833   -21.383    52.434 
  690.000000   -22.643    -7.176    21.745    97.919   -25.012   -42.301   -21.329    50.988 
  700.000000   -22.669    -7.645    21.730    96.784   -24.993   -43.042   -21.184    50.115 
  710.000000   -22.576    -8.810    21.711    95.642   -24.947   -43.645   -21.065    49.039 
  720.000000   -22.447    -8.591    21.691    94.536   -24.940   -44.331   -21.001    47.664 
  730.000000   -22.402   -10.898    21.671    93.379   -24.909   -44.926   -20.886    46.293 
  740.000000   -22.179   -11.510    21.641    92.286   -24.963   -45.570   -20.781    44.678 
  750.000000   -22.090   -11.645    21.623    91.170   -24.925   -46.255   -20.741    44.240 
  760.000000   -22.037   -12.386    21.594    90.057   -24.914   -46.981   -20.627    43.091 
  770.000000   -21.927   -13.156    21.574    88.961   -24.906   -47.452   -20.548    41.762 
  780.000000   -21.723   -14.311    21.562    87.844   -24.892   -48.284   -20.430    40.524 
  790.000000   -21.680   -15.536    21.540    86.744   -24.901   -48.764   -20.377    39.267 
  800.000000   -21.559   -16.600    21.504    85.597   -24.899   -49.529   -20.330    37.503 
  810.000000   -21.379   -16.904    21.489    84.494   -24.872   -50.081   -20.217    36.879 
  820.000000   -21.384   -17.539    21.458    83.401   -24.888   -50.824   -20.198    35.326 
  830.000000   -21.333   -17.802    21.437    82.315   -24.868   -51.646   -20.087    34.097 
  840.000000   -21.156   -18.468    21.424    81.172   -24.851   -52.209   -19.901    33.356 
  850.000000   -21.143   -19.731    21.400    80.072   -24.847   -52.761   -19.877    32.565 
  860.000000   -21.143   -19.705    21.374    78.980   -24.842   -53.624   -19.787    31.476 
  870.000000   -21.065   -21.242    21.363    77.903   -24.847   -53.973   -19.651    30.844 
  880.000000   -21.002   -21.882    21.323    76.829   -24.811   -54.905   -19.636    28.983 
  890.000000   -20.982   -22.188    21.305    75.741   -24.802   -55.102   -19.553    27.926 
  900.000000   -20.891   -23.483    21.282    74.625   -24.829   -55.970   -19.418    27.033 
  910.000000   -20.760   -24.221    21.250    73.525   -24.777   -56.765   -19.392    25.349 
  920.000000   -20.701   -24.841    21.241    72.430   -24.778   -57.222   -19.239    24.859 
  930.000000   -20.660   -25.950    21.220    71.350   -24.754   -57.871   -19.174    23.632 
  940.000000   -20.655   -26.158    21.194    70.284   -24.770   -58.445   -19.047    22.604 
  950.000000   -20.548   -27.688    21.179    69.163   -24.749   -59.225   -18.978    21.778 
  960.000000   -20.555   -28.500    21.143    68.107   -24.757   -59.812   -18.957    20.343 
  970.000000   -20.420   -29.327    21.120    66.997   -24.748   -60.406   -18.840    19.361 
  980.000000   -20.447   -30.673    21.095    65.912   -24.710   -61.193   -18.786    17.924 
  990.000000   -20.334   -31.542    21.066    64.835   -24.741   -61.712   -18.753    16.982 
 1000.000000   -20.253   -32.137    21.046    63.744   -24.716   -62.478   -18.698    15.840 
 1010.000000   -20.254   -33.035    21.029    62.652   -24.709   -63.274   -18.565    15.107 
 1020.000000   -20.152   -34.131    21.001    61.535   -24.700   -63.977   -18.558    14.001 
 1030.000000   -20.089   -34.826    20.977    60.497   -24.698   -64.595   -18.516    12.611 
 1040.000000   -20.058   -36.352    20.963    59.427   -24.681   -65.255   -18.475    11.619 
 1050.000000   -19.971   -36.963    20.928    58.396   -24.690   -65.959   -18.424    10.280 
 1060.000000   -19.856   -38.002    20.905    57.300   -24.664   -66.546   -18.362     9.032 
 1070.000000   -19.820   -39.089    20.886    56.236   -24.679   -67.219   -18.329     8.378 
 1080.000000   -19.820   -39.093    20.866    55.149   -24.665   -67.916   -18.330     7.198 
 1090.000000   -19.602   -40.239    20.840    54.040   -24.655   -68.375   -18.093     6.611 
 1100.000000   -19.630   -41.218    20.812    53.000   -24.635   -69.153   -18.096     5.277 
 1110.000000   -19.560   -42.067    20.790    51.941   -24.625   -69.897   -18.071     4.262 
 1120.000000   -19.499   -43.273    20.778    50.882   -24.596   -70.462   -18.034     3.529 
 1130.000000   -19.443   -44.474    20.744    49.826   -24.615   -71.089   -18.016     1.702 
 1140.000000   -19.370   -45.249    20.724    48.742   -24.602   -71.953   -17.971     0.667 
 1150.000000   -19.319   -46.513    20.696    47.726   -24.619   -72.510   -17.971    -0.250 
 1160.000000   -19.329   -47.105    20.673    46.676   -24.593   -73.285   -17.945    -1.631 
 1170.000000   -19.243   -47.531    20.661    45.601   -24.592   -73.848   -17.816    -2.058 
 1180.000000   -19.267   -48.148    20.632    44.510   -24.575   -74.618   -17.774    -3.036 
 1190.000000   -19.193   -48.857    20.607    43.489   -24.563   -75.209   -17.695    -4.183 
 1200.000000   -19.133   -49.565    20.586    42.406   -24.578   -75.920   -17.625    -4.874 
 1210.000000   -19.066   -51.205    20.565    41.345   -24.553   -76.459   -17.616    -6.217 
 1220.000000   -19.047   -51.938    20.534    40.327   -24.542   -77.214   -17.626    -7.231 
 1230.000000   -19.073   -52.708    20.508    39.279   -24.543   -77.959   -17.589    -8.280 
 1240.000000   -19.009   -53.950    20.481    38.241   -24.571   -78.496   -17.545    -9.440 
 1250.000000   -19.023   -54.443    20.458    37.173   -24.534   -79.168   -17.518   -10.554 
 1260.000000   -18.989   -55.353    20.444    36.135   -24.499   -79.890   -17.440   -11.226 
 1270.000000   -18.915   -56.541    20.423    35.084   -24.502   -80.608   -17.388   -12.471 
 1280.000000   -18.883   -57.173    20.401    34.024   -24.498   -81.336   -17.343   -13.590 
 1290.000000   -18.846   -58.486    20.380    33.010   -24.502   -81.892   -17.277   -14.241 
 1300.000000   -18.925   -60.190    20.343    31.918   -24.455   -82.388   -17.278   -15.772 
 1310.000000   -18.890   -60.517    20.322    30.929   -24.473   -83.239   -17.212   -16.759 
 1320.000000   -18.837   -62.016    20.299    29.865   -24.487   -83.877   -17.171   -17.581 
 1330.000000   -18.861   -62.434    20.270    28.859   -24.476   -84.576   -17.175   -18.843 
 1340.000000   -18.852   -62.969    20.260    27.804   -24.461   -85.403   -17.070   -19.408 
 1350.000000   -18.778   -64.039    20.236    26.723   -24.467   -85.977   -17.069   -20.401 
 1360.000000   -18.720   -64.931    20.212    25.702   -24.410   -86.677   -17.005   -21.447 
 1370.000000   -18.705   -66.257    20.193    24.646   -24.427   -87.464   -16.959   -22.433 
 1380.000000   -18.639   -67.927    20.162    23.617   -24.431   -87.917   -16.924   -23.712 
 1390.000000   -18.686   -68.832    20.138    22.599   -24.434   -88.731   -16.905   -25.049 
 1400.000000   -18.634   -70.048    20.114    21.530   -24.401   -89.240   -16.834   -25.703 
 1410.000000   -18.643   -70.937    20.088    20.516   -24.389   -90.043   -16.819   -26.883 
 1420.000000   -18.602   -71.072    20.071    19.495   -24.390   -90.660   -16.748   -27.858 
 1430.000000   -18.623   -72.328    20.055    18.471   -24.386   -91.447   -16.709   -28.666 
 1440.000000   -18.603   -73.243    20.035    17.427   -24.374   -92.043   -16.704   -29.491 
 1450.000000   -18.539   -74.151    20.008    16.373   -24.378   -92.841   -16.636   -30.319 
 1460.000000   -18.560   -75.568    19.984    15.344   -24.345   -93.596   -16.576   -31.302 
 1470.000000   -18.514   -76.649    19.955    14.358   -24.357   -94.036   -16.606   -32.644 
 1480.000000   -18.576   -77.518    19.934    13.316   -24.369   -94.860   -16.557   -33.409 
 1490.000000   -18.569   -78.639    19.906    12.260   -24.348   -95.602   -16.501   -34.268 
 1500.000000   -18.478   -78.894    19.874    11.239   -24.358   -96.218   -16.447   -35.615 
 1510.000000   -18.473   -80.482    19.863    10.249   -24.321   -96.847   -16.449   -36.395 
 1520.000000   -18.548   -81.512    19.846     9.269   -24.321   -97.711   -16.477   -37.105 
 1530.000000   -18.601   -81.865    19.833     8.138   -24.336   -98.389   -16.413   -37.375 
 1540.000000   -18.394   -81.687    19.779     6.947   -24.353   -98.832   -16.183   -38.776 
 1550.000000   -18.289   -83.389    19.743     6.063   -24.334   -99.498   -16.234   -40.634 
 1560.000000   -18.277   -85.093    19.735     5.124   -24.301  -100.263   -16.234   -41.314 
 1570.000000   -18.286   -86.153    19.718     4.138   -24.305  -100.731   -16.236   -42.356 
 1580.000000   -18.310   -86.805    19.696     3.096   -24.294  -101.533   -16.250   -43.306 
 1590.000000   -18.294   -88.169    19.682     2.097   -24.250  -102.210   -16.224   -44.000 
 1600.000000   -18.259   -89.231    19.647     1.060   -24.279  -102.821   -16.220   -45.348 
 1610.000000   -18.227   -90.028    19.616     0.021   -24.270  -103.610   -16.193   -46.348 
 1620.000000   -18.227   -92.006    19.592    -0.951   -24.247  -104.274   -16.152   -47.625 
 1630.000000   -18.176   -92.982    19.565    -1.962   -24.217  -104.939   -16.206   -48.706 
 1640.000000   -18.216   -93.600    19.557    -2.959   -24.210  -105.661   -16.176   -49.430 
 1650.000000   -18.165   -94.708    19.531    -3.978   -24.215  -106.245   -16.145   -50.438 
 1660.000000   -18.137   -95.832    19.515    -4.994   -24.234  -106.964   -16.153   -51.703 
 1670.000000   -18.091   -96.679    19.498    -6.009   -24.219  -107.652   -16.112   -52.440 
 1680.000000   -18.084   -98.043    19.472    -7.019   -24.215  -108.561   -16.129   -53.410 
 1690.000000   -18.114   -98.958    19.447    -8.006   -24.204  -109.000   -16.137   -54.700 
 1700.000000   -18.070  -100.175    19.419    -9.066   -24.211  -109.748   -16.091   -55.671 
 1710.000000   -18.013  -101.280    19.399   -10.078   -24.206  -110.471   -16.051   -56.765 
 1720.000000   -18.003  -102.048    19.364   -11.071   -24.212  -111.159   -16.060   -58.110 
 1730.000000   -17.951  -103.126    19.352   -12.060   -24.177  -111.908   -16.008   -58.788 
 1740.000000   -17.915  -104.313    19.329   -13.075   -24.146  -112.654   -16.008   -59.918 
 1750.000000   -17.895  -105.476    19.305   -14.058   -24.144  -113.149   -16.006   -60.826 
 1760.000000   -17.890  -106.252    19.291   -15.093   -24.185  -114.016   -15.969   -61.587 
 1770.000000   -17.837  -107.556    19.247   -16.113   -24.151  -114.558   -15.972   -62.958 
 1780.000000   -17.788  -108.624    19.226   -17.047   -24.123  -115.271   -15.968   -64.267 
 1790.000000   -17.801  -110.136    19.208   -18.006   -24.125  -116.033   -15.990   -65.352 
 1800.000000   -17.824  -110.983    19.185   -19.049   -24.117  -116.539   -15.994   -66.300 
 1810.000000   -17.792  -111.166    19.166   -20.044   -24.122  -117.423   -15.959   -67.040 
 1820.000000   -17.811  -112.369    19.151   -21.107   -24.126  -118.111   -15.911   -67.717 
 1830.000000   -17.724  -113.264    19.126   -22.052   -24.110  -118.951   -15.903   -68.793 
 1840.000000   -17.692  -114.115    19.099   -23.069   -24.085  -119.543   -15.862   -69.798 
 1850.000000   -17.696  -115.221    19.079   -24.035   -24.120  -120.181   -15.854   -70.587 
 1860.000000   -17.718  -116.761    19.047   -25.001   -24.114  -120.723   -15.864   -71.908 
 1870.000000   -17.719  -117.544    19.030   -26.011   -24.081  -121.499   -15.864   -72.895 
 1880.000000   -17.795  -118.560    19.009   -26.982   -24.080  -122.226   -15.853   -73.708 
 1890.000000   -17.761  -118.985    18.986   -27.951   -24.073  -122.684   -15.878   -74.713 
 1900.000000   -17.692  -119.681    18.973   -28.990   -24.082  -123.578   -15.833   -75.453 
 1910.000000   -17.677  -120.962    18.949   -29.942   -24.065  -124.299   -15.804   -76.248 
 1920.000000   -17.738  -122.081    18.927   -30.988   -24.042  -124.997   -15.822   -77.161 
 1930.000000   -17.791  -122.899    18.908   -31.941   -24.030  -125.791   -15.787   -78.180 
 1940.000000   -17.809  -124.576    18.880   -32.950   -24.020  -126.063   -15.768   -79.242 
 1950.000000   -17.815  -125.312    18.857   -33.889   -24.003  -127.172   -15.782   -80.213 
 1960.000000   -17.836  -125.937    18.841   -34.927   -24.016  -127.560   -15.775   -80.925 
 1970.000000   -17.876  -127.294    18.816   -35.913   -24.022  -128.182   -15.771   -81.777 
 1980.000000   -17.852  -127.801    18.789   -36.867   -24.006  -129.164   -15.752   -82.824 
 1990.000000   -17.896  -128.901    18.780   -37.885   -23.992  -129.759   -15.694   -83.314 
 2000.000000   -17.907  -129.868    18.756   -38.869   -23.994  -130.518   -15.711   -84.229 
 2010.000000   -17.907  -130.695    18.736   -39.863   -23.980  -131.140   -15.693   -84.924 
 2020.000000   -17.921  -132.054    18.717   -40.877   -24.014  -132.172   -15.649   -85.850 
 2030.000000   -17.928  -133.444    18.688   -41.805   -23.960  -132.421   -15.664   -87.281 
 2040.000000   -17.994  -134.587    18.668   -42.776   -23.982  -133.272   -15.643   -88.224 
 2050.000000   -18.024  -136.202    18.646   -43.807   -23.982  -134.123   -15.623   -88.972 
 2060.000000   -18.060  -137.047    18.622   -44.792   -23.970  -134.624   -15.598   -89.899 
 2070.000000   -18.033  -137.919    18.604   -45.837   -23.954  -135.304   -15.577   -90.786 
 2080.000000   -18.003  -138.965    18.589   -46.813   -23.956  -136.154   -15.543   -91.638 
 2090.000000   -18.078  -140.368    18.564   -47.800   -23.959  -136.802   -15.546   -92.657 
 2100.000000   -18.063  -141.425    18.541   -48.763   -23.959  -137.511   -15.541   -93.608 
 2110.000000   -18.065  -142.954    18.522   -49.729   -23.930  -138.207   -15.520   -94.564 
 2120.000000   -18.099  -144.097    18.495   -50.697   -23.896  -138.780   -15.547   -95.768 
