! Device:	HMC349ALP4CE								
! Description:	SOI MMIC SPDT Non-Reflective Switch
! Package:	LP4CE 16 pin 4x4 mm QFN Plastic Package								
! Frequency:	DC -  4 GHz								
!								
! Ports:								
! RFC = Port 1								
! RF1 = Port 2								
! RF2 = Port 3								
!								
! State: All Off								
!								
! Supply Voltage:								
! Vdd = +5 V								
!								
! Control Voltages: 																
! Vctl  = 0 V
! EN  = +5 V
!
! Data:	Data was collected using a calibrated network analyzer with AFR software.
!	Fixtures were calculated using AFR and fixturing was applied to collect 
!	this Deembedded  S Parameter data of HMC349ALP4CE.
!
! Note:	Analog Devices supplies this data as a sample of measured data at the package pin
!	for this product.  Your particular data for this product may vary.
!	Data was taken at 25 degrees C.
!	Analog Devices reserves the right to change this data at anytime.								
!
# Hz S  dB   R 50
10000000 -0.057292879 -0.34159252 -73.300385 14.551579 -64.382126 61.271107
-65.662529 73.346527 -0.30664009 -11.879793 -75.653778 -62.914463
-63.073784 74.987381 -80.622955 17.076885 -0.29426804 -11.844738
20000000 -0.058070891 -0.69707781 -65.877411 42.350159 -65.62661 39.551479
-66.892776 41.604286 -0.85882092 -22.411762 -79.20282 -177.0246
-66.050644 60.111668 -76.891556 -107.66927 -0.85878575 -22.423544
30000000 -0.072822601 -0.97212738 -62.795689 19.350744 -62.729053 20.10009
-62.767422 19.955648 -1.6346788 -31.394976 -88.08223 -159.44777
-62.598545 24.218277 -90.926476 62.821117 -1.6287558 -31.407454
40000000 -0.08563894 -1.1729529 -62.860462 -1.1333193 -61.984467 -0.87480193
-62.569107 4.322578 -2.5182817 -38.684254 -88.249062 137.49573
-62.510365 -4.1620102 -86.432404 109.81003 -2.5132928 -38.685234
50000000 -0.088529356 -1.4087796 -63.347935 -17.245455 -62.649342 -19.200121
-63.171753 -16.015898 -3.4319062 -44.641586 -89.401009 -53.712234
-62.311367 -17.398748 -105.00833 -153.40909 -3.4265208 -44.621056
60000000 -0.093642481 -1.654162 -64.720406 -32.417179 -64.447403 -35.287235
-63.089237 -26.781103 -4.3388767 -49.393875 -80.25042 164.61624
-64.522224 -29.843552 -76.924614 82.362633 -4.3327618 -49.371304
70000000 -0.097248726 -1.8998816 -65.539742 -35.449631 -65.139595 -31.386967
-64.563736 -29.794794 -5.2138491 -53.180889 -83.813721 125.72147
-65.008286 -33.181236 -81.27047 136.82625 -5.2069011 -53.140999
80000000 -0.098325506 -2.1359434 -66.106621 -40.069607 -66.974854 -34.387833
-65.85643 -34.457455 -6.0417838 -56.242092 -78.299934 94.837486
-66.39888 -32.175053 -79.26445 93.170967 -6.0361624 -56.166164
90000000 -0.1022632 -2.3698308 -67.079819 -44.260147 -68.070015 -37.615929
-67.421066 -43.93597 -6.8219504 -58.744526 -77.284966 127.73309
-68.335342 -38.71653 -77.312263 132.35587 -6.8167248 -58.631397
100000000 -0.10454508 -2.5972686 -68.849991 -41.024689 -68.329208 -44.342884
-67.819122 -43.066845 -7.5545473 -60.761192 -79.18396 114.8104
-68.390648 -49.816914 -77.634293 116.02677 -7.549633 -60.615997
110000000 -0.10755598 -2.8157539 -69.835617 -42.615368 -69.296318 -48.480576
-70.469872 -49.523037 -8.2431259 -62.425758 -80.667755 125.89288
-69.937889 -38.485859 -77.262329 111.4514 -8.2380352 -62.245686
120000000 -0.10990318 -3.0427544 -71.935707 -49.162987 -71.274895 -47.984905
-71.525414 -42.303635 -8.8880873 -63.78511 -77.200981 106.13117
-70.794456 -44.109829 -76.556168 118.8544 -8.8852024 -63.582886
130000000 -0.11421175 -3.2636876 -71.510231 -40.39835 -71.974892 -47.240433
-72.720345 -40.555744 -9.4956331 -64.869263 -74.350044 114.32398
-72.330986 -50.904289 -73.929474 108.43472 -9.4940872 -64.68248
140000000 -0.11618855 -3.5023503 -73.204605 -42.413677 -73.723015 -46.781219
-74.474213 -41.271927 -10.069574 -65.75972 -73.988144 119.4774
-74.295174 -36.470413 -73.347778 107.89274 -10.07227 -65.596474
150000000 -0.12296114 -3.7514532 -73.688995 -50.554703 -74.369568 -48.563377
-74.181091 -31.595701 -10.617668 -66.488403 -72.732536 112.45081
-73.850899 -42.469589 -73.164307 109.95261 -10.617088 -66.321701
160000000 -0.12803853 -3.9764235 -74.563255 -35.775723 -76.299446 -30.532024
-74.86908 -31.742468 -11.139854 -67.070633 -72.656578 111.00391
-77.751381 -33.49736 -72.196213 104.01989 -11.133615 -66.926781
170000000 -0.12805948 -4.2124848 -75.246651 -26.800884 -75.375328 -30.930506
-75.631287 -31.720552 -11.636602 -67.557098 -71.63546 113.14651
-74.987267 -25.582815 -71.724747 104.12325 -11.625795 -67.406837
180000000 -0.12669379 -4.4738326 -75.84153 -16.099182 -77.886177 -22.544004
-76.637253 -18.474983 -12.111175 -67.954796 -71.834343 107.19821
-81.999847 -36.33342 -70.665794 109.59564 -12.094692 -67.808662
190000000 -0.12576696 -4.7169671 -76.471886 -15.574254 -73.949173 -18.682669
-77.376808 -19.561771 -12.565781 -68.291901 -70.733192 111.1228
-75.743492 -23.195156 -71.115417 106.97723 -12.539694 -68.113411
200000000 -0.12660255 -4.9617648 -76.221222 -26.918634 -75.498466 -6.9667373
-76.71891 -15.885357 -13.000846 -68.581329 -69.777939 97.319641
-76.233864 -24.993223 -71.203049 111.91315 -12.966557 -68.339561
210000000 -0.12539057 -5.2073412 -77.85334 -15.701094 -75.893509 -11.549752
-77.110954 -26.713486 -13.410631 -68.792114 -69.494217 103.4186
-75.005074 -15.596052 -69.265564 103.51372 -13.374116 -68.50618
220000000 -0.12564081 -5.4424992 -75.820862 9.504221 -77.073555 -3.1264806
-79.366013 -8.715766 -13.802742 -68.966782 -69.3591 107.64632
-77.162834 6.9803338 -69.663445 99.85524 -13.764006 -68.641022
230000000 -0.12421408 -5.6796627 -77.871201 -1.518527 -80.804367 22.861923
-80.778107 1.5560946 -14.174164 -69.048584 -69.185402 107.24928
-81.843491 -16.101648 -69.087746 95.957237 -14.137644 -68.693245
240000000 -0.12916529 -5.9036636 -77.845055 -3.9725144 -81.528412 28.357155
-79.278481 11.089121 -14.534064 -69.090157 -69.030075 101.15175
-78.292252 1.3282954 -68.656967 108.65866 -14.498942 -68.698624
250000000 -0.12916915 -6.1185384 -76.754219 7.1843719 -79.208611 14.501925
-75.769463 12.063108 -14.877925 -69.051697 -68.32917 98.887901
-76.138512 2.8106744 -68.422318 100.10538 -14.848222 -68.676491
260000000 -0.13185948 -6.3363171 -75.463455 6.5275602 -82.566223 12.455503
-76.876022 29.969723 -15.22109 -68.951904 -69.135612 98.061737
-80.205963 -10.689218 -67.256012 99.741982 -15.185841 -68.598801
270000000 -0.1272887 -6.5666127 -73.686417 5.6812716 -77.796005 23.31146
-74.537407 32.555038 -15.550533 -68.882713 -67.476707 105.32956
-94.747894 -51.877026 -68.887825 95.869507 -15.50653 -68.50956
280000000 -0.12775016 -6.7987428 -81.907074 21.112097 -78.629753 7.0977192
-75.292732 33.706181 -15.876023 -68.762527 -67.862602 105.4879
-77.070633 43.400803 -66.20723 107.90856 -15.827981 -68.401344
290000000 -0.130154 -7.0444775 -75.611946 50.824348 -81.078262 23.112812
-78.132668 36.778511 -16.189268 -68.673706 -66.108521 101.05055
-77.136093 18.204674 -66.171326 108.21368 -16.133474 -68.24707
300000000 -0.13022251 -7.2749381 -76.785683 43.839638 -75.510155 12.722001
-75.932045 42.452278 -16.489948 -68.573624 -67.167717 96.275558
-75.962265 27.247368 -64.946365 99.62368 -16.426872 -68.09938
310000000 -0.12877886 -7.5090556 -78.881233 36.230137 -90.283394 44.181084
-75.570618 35.097202 -16.778526 -68.399178 -66.35585 102.21729
-80.314613 40.631718 -65.55986 99.722275 -16.709827 -67.937912
320000000 -0.13006866 -7.7452869 -76.029091 36.083679 -77.561478 23.649817
-79.272125 25.141258 -17.048986 -68.250717 -65.458649 95.943497
-78.727211 32.924034 -66.048203 101.79501 -16.986155 -67.701424
330000000 -0.13250597 -7.9886022 -77.350555 33.162544 -77.523903 36.854492
-77.284401 46.886375 -17.307386 -68.085724 -65.965683 100.83419
-79.941269 62.074741 -65.319199 97.550316 -17.252678 -67.47374
340000000 -0.13166465 -8.2116432 -76.666054 44.308754 -79.923447 29.900711
-75.446144 43.609364 -17.560879 -67.81028 -66.173134 98.531639
-74.989197 22.427803 -65.441597 101.05238 -17.508022 -67.214722
350000000 -0.13398243 -8.4460468 -76.217812 40.969196 -77.119606 48.536552
-75.906685 47.563652 -17.807426 -67.53257 -65.088196 99.185524
-79.044151 29.093813 -65.272461 99.820152 -17.757668 -66.894295
360000000 -0.13770929 -8.6810131 -74.469337 43.696667 -76.702057 39.721062
-74.180923 57.819778 -18.050692 -67.136398 -64.441536 97.881767
-74.785172 54.146637 -64.421402 92.298584 -18.009268 -66.625366
370000000 -0.13750942 -8.9225798 -74.864677 40.940014 -75.470604 32.191223
-74.318748 43.353809 -18.29878 -66.782646 -64.47731 96.402328
-76.032433 11.527753 -64.502197 99.621994 -18.247009 -66.310226
380000000 -0.14168368 -9.1698427 -73.872711 54.088974 -74.171425 35.041382
-74.411415 52.168953 -18.547657 -66.446472 -64.616333 95.85498
-73.816002 39.630733 -64.059547 98.832733 -18.48251 -65.97966
390000000 -0.14019009 -9.4100389 -73.794235 51.497112 -75.05867 44.787521
-74.867966 57.215252 -18.782549 -66.119171 -64.058998 93.317894
-74.442726 46.712017 -63.980236 95.63298 -18.708557 -65.660889
400000000 -0.14055285 -9.6433353 -73.671844 46.068169 -75.164276 52.679508
-74.023483 52.357895 -19.019306 -65.817169 -63.774868 96.692299
-75.725754 36.721428 -64.540115 93.831375 -18.932333 -65.323395
410000000 -0.13996105 -9.8733625 -73.255074 59.421322 -73.838097 46.253841
-73.920631 48.363213 -19.235334 -65.479897 -63.835602 94.407524
-73.654373 45.159756 -63.924709 94.109039 -19.153172 -64.977646
420000000 -0.13960409 -10.102537 -73.22998 49.175652 -75.939133 49.967308
-73.443573 44.948883 -19.449177 -65.2015 -63.608624 93.910362
-74.014977 54.998302 -63.69479 93.206718 -19.356554 -64.626457
430000000 -0.13588589 -10.32958 -75.620331 59.651527 -74.525139 48.238956
-73.330551 48.963478 -19.646606 -64.851006 -63.497925 96.343491
-74.81398 42.975113 -63.09594 94.481491 -19.559704 -64.266991
440000000 -0.13753431 -10.550776 -73.465157 52.944016 -74.626724 48.550144
-73.410469 53.271877 -19.83543 -64.451477 -63.18087 93.611038
-73.565666 50.374779 -62.763535 94.856979 -19.756666 -63.899773
450000000 -0.13774301 -10.784157 -72.834991 50.134895 -74.119614 62.140064
-74.088516 58.924786 -20.027061 -64.02182 -62.739178 94.015633
-74.426598 62.365803 -62.845432 93.481461 -19.942791 -63.490299
460000000 -0.14027505 -11.011334 -73.046295 62.99855 -72.983521 57.740021
-73.532623 61.117771 -20.21908 -63.536304 -62.646141 93.09584
-72.85038 61.764801 -62.584625 95.021233 -20.131554 -63.109398
470000000 -0.13987541 -11.245266 -72.793404 59.538349 -73.309784 60.162296
-72.398964 60.845989 -20.410101 -63.050243 -62.187344 94.824219
-74.412643 56.020798 -62.846458 93.746712 -20.316883 -62.729763
480000000 -0.13685019 -11.484696 -72.038429 65.45668 -72.384644 53.437435
-72.960411 62.088531 -20.601753 -62.535923 -62.302887 92.808014
-72.445564 54.514442 -62.220127 91.001808 -20.48922 -62.299454
490000000 -0.13719577 -11.735038 -71.141457 58.12196 -72.413025 55.464409
-71.781487 56.004677 -20.798332 -62.122082 -62.081993 93.98629
-72.760735 60.633694 -62.11832 92.561897 -20.661242 -61.875858
500000000 -0.13772079 -11.973173 -72.084885 57.779472 -73.0718 48.023006
-71.744247 61.413681 -20.988779 -61.680496 -61.860027 93.472794
-72.954865 47.46785 -62.060726 94.108765 -20.826395 -61.362003
510000000 -0.13537858 -12.208619 -70.670502 52.017876 -72.661293 43.153427
-70.667503 64.599701 -21.167395 -61.266674 -62.10305 93.399742
-72.343712 47.978981 -61.711357 94.231461 -20.989313 -60.852909
520000000 -0.13590176 -12.440962 -71.836288 58.789196 -72.870102 55.717201
-71.034546 62.649876 -21.339222 -60.885994 -61.712097 93.171082
-73.498749 55.538471 -61.607121 92.269295 -21.152952 -60.311577
530000000 -0.13641967 -12.674623 -70.51857 54.030819 -72.510597 60.662968
-70.899544 61.799667 -21.493326 -60.458992 -61.374718 92.611687
-72.465248 70.30088 -61.284397 93.833733 -21.31686 -59.771633
540000000 -0.13818483 -12.894724 -70.878555 61.528667 -71.282272 55.454346
-70.96212 66.840446 -21.64613 -60.018124 -61.05476 95.428429
-71.255524 57.806309 -60.961159 93.238678 -21.475685 -59.221226
550000000 -0.13942631 -13.131688 -71.232246 63.20644 -71.715561 57.037102
-70.796303 64.630707 -21.801596 -59.493481 -61.179592 94.103142
-71.402435 57.966309 -61.192192 92.795036 -21.638315 -58.774242
560000000 -0.13947992 -13.364079 -70.639755 67.596672 -71.958817 55.493912
-70.094696 60.621876 -21.947788 -58.908108 -60.877476 93.447456
-71.33445 49.355583 -60.686913 91.807556 -21.79199 -58.274712
570000000 -0.14127092 -13.608269 -70.425339 64.764748 -70.987312 56.233513
-71.246635 63.521919 -22.099113 -58.331871 -60.588631 90.270424
-71.066269 59.490314 -60.78735 90.994408 -21.951828 -57.841846
580000000 -0.14165749 -13.852691 -70.976532 59.499706 -70.73246 61.71167
-69.699249 63.951664 -22.256067 -57.789227 -60.814064 91.808266
-70.093727 61.942196 -60.837322 90.118179 -22.094509 -57.406059
590000000 -0.14016786 -14.099865 -69.635948 65.93 -70.794632 49.284073
-70.754333 69.827881 -22.401213 -57.295521 -60.550808 90.912445
-71.151634 55.662651 -60.425381 92.435776 -22.220943 -56.976006
600000000 -0.13728973 -14.34379 -70.015442 65.035965 -72.012886 53.476112
-70.181732 69.289284 -22.554529 -56.778969 -60.42046 91.071747
-71.540321 53.462963 -60.397007 92.263008 -22.356445 -56.50494
610000000 -0.1352303 -14.578144 -70.253777 67.533592 -69.862709 59.112808
-69.700821 69.587128 -22.694134 -56.220215 -60.098248 89.86869
-71.5914 62.842934 -60.294609 92.100998 -22.470709 -55.96888
620000000 -0.13617831 -14.811018 -69.711739 68.792435 -70.688728 64.297096
-69.832191 67.402763 -22.835503 -55.741211 -60.155003 90.356903
-71.180542 64.203163 -59.915298 91.365089 -22.597054 -55.40168
630000000 -0.13560273 -15.037006 -69.641296 70.124321 -70.343765 60.89193
-70.330536 64.951523 -22.954737 -55.167728 -60.032459 91.178436
-70.512718 59.514019 -60.144238 90.739403 -22.705336 -54.771988
640000000 -0.13563609 -15.271723 -69.481956 68.734566 -70.632019 54.493736
-69.480659 73.019127 -23.072062 -54.58783 -59.851875 90.621666
-71.046959 56.232525 -59.739609 91.835655 -22.828531 -54.095852
650000000 -0.13761699 -15.50142 -69.421425 69.655777 -70.402657 58.413548
-70.246635 72.210098 -23.201067 -53.920227 -59.752254 91.366905
-70.41877 61.334675 -59.734825 89.661331 -22.94104 -53.413601
660000000 -0.14040385 -15.743783 -69.124374 71.622238 -70.075279 61.271946
-69.927612 62.1157 -23.319643 -53.241776 -59.606213 90.757233
-70.260719 68.302223 -59.603687 90.262398 -23.069315 -52.745415
670000000 -0.14276828 -15.986084 -69.525383 65.832558 -69.923439 61.108971
-69.872604 69.109047 -23.443314 -52.572166 -59.213669 90.285339
-70.223724 63.183109 -59.272068 90.455414 -23.191912 -52.148827
680000000 -0.14472792 -16.239119 -69.232445 71.109177 -69.443291 58.577328
-69.103851 71.193634 -23.56785 -51.875282 -59.202782 90.116859
-69.70816 60.555946 -59.25811 89.297821 -23.314505 -51.631165
690000000 -0.14297955 -16.484373 -68.831429 70.656662 -69.387291 58.051075
-69.317543 68.149727 -23.694817 -51.31255 -59.111504 90.2845
-68.601204 58.391842 -59.177517 88.972969 -23.410595 -51.026085
700000000 -0.14143805 -16.71921 -69.27243 69.486786 -69.977829 66.89164
-69.37455 71.515793 -23.819239 -50.700535 -58.983856 88.443611
-69.677437 63.509121 -59.007915 89.473686 -23.521158 -50.469353
710000000 -0.14039361 -16.952156 -68.878044 74.969666 -69.752556 61.493622
-68.869843 69.706528 -23.924519 -50.164398 -58.876484 89.377586
-69.552597 64.209045 -58.879101 88.707672 -23.622652 -49.908657
720000000 -0.14175521 -17.16922 -68.648041 69.211639 -70.850212 59.943031
-68.894264 67.371887 -24.0355 -49.625687 -58.57885 89.288971
-70.602036 57.471519 -58.785263 89.697182 -23.722166 -49.302963
730000000 -0.14087085 -17.386818 -68.490738 69.370041 -69.456444 58.031254
-68.590637 71.260948 -24.120617 -49.097126 -58.701637 89.49025
-70.139954 56.708687 -58.757671 89.143013 -23.810377 -48.635986
740000000 -0.14055672 -17.611734 -68.801788 68.713097 -69.806465 60.116451
-68.369461 70.744125 -24.210365 -48.438721 -58.484295 89.512978
-69.70771 57.990944 -58.716293 88.607147 -23.905949 -48.035458
750000000 -0.1426073 -17.846615 -68.068802 72.003426 -70.03492 65.637566
-68.611511 71.715347 -24.296797 -47.75457 -58.420361 89.205826
-69.954391 61.846325 -58.448071 87.718819 -23.998657 -47.39325
760000000 -0.14261475 -18.099739 -68.279305 70.452744 -69.77343 62.069298
-67.975464 70.592766 -24.389534 -47.018448 -58.385948 89.077797
-69.842567 60.174843 -58.400963 88.11969 -24.091759 -46.767845
770000000 -0.14331372 -18.364853 -68.540405 71.966469 -69.367279 67.264481
-68.39666 71.104805 -24.48078 -46.265526 -58.146149 87.487335
-70.126297 61.674294 -58.125599 88.668167 -24.177799 -46.194183
780000000 -0.14245056 -18.621033 -67.24942 70.792023 -69.532204 61.150864
-67.821396 71.243835 -24.580196 -45.562885 -58.099438 87.369232
-69.257324 61.279247 -58.170937 87.67141 -24.262974 -45.603859
790000000 -0.14122698 -18.879539 -67.852341 68.133949 -69.43988 66.437111
-68.066704 70.432838 -24.673946 -44.864304 -57.993786 88.003319
-69.68647 68.923843 -58.078838 88.00354 -24.340874 -45.078594
800000000 -0.13930203 -19.124218 -67.914642 70.16674 -69.226501 61.9491
-68.577065 70.611702 -24.778366 -44.230774 -57.803898 87.873291
-70.080673 59.727695 -57.968929 86.988792 -24.407505 -44.509792
810000000 -0.1366607 -19.351534 -67.815727 73.396545 -70.006477 67.140839
-67.804291 70.698952 -24.8657 -43.612251 -57.721066 87.084145
-68.99765 63.35836 -57.573776 86.479233 -24.467165 -43.943512
820000000 -0.13760479 -19.566322 -67.897331 71.068512 -69.288437 61.244381
-68.663216 73.542809 -24.942945 -43.049282 -57.57814 86.637199
-69.720604 59.196793 -57.689548 86.625313 -24.538168 -43.348667
830000000 -0.13782507 -19.794861 -67.753746 71.808739 -69.126167 66.225761
-67.508247 74.093208 -25.022205 -42.478497 -57.739258 87.010689
-69.15522 64.077003 -57.651073 86.905533 -24.583195 -42.743858
840000000 -0.13981012 -20.015778 -67.617836 72.679077 -69.584778 66.020508
-67.964134 70.725937 -25.089075 -41.873039 -57.640423 87.135902
-69.387581 69.637749 -57.514721 87.118507 -24.642189 -42.047161
850000000 -0.13909048 -20.237179 -67.200119 74.12291 -68.730507 69.445778
-67.774055 72.19606 -25.151257 -41.189171 -57.582645 85.630096
-69.484451 64.619774 -57.472755 85.625702 -24.710709 -41.371204
860000000 -0.13977855 -20.476246 -67.521103 73.740189 -69.192459 69.065239
-67.225815 73.852974 -25.223112 -40.473442 -57.432507 86.39933
-68.793694 67.709122 -57.356129 86.436424 -24.75691 -40.704792
870000000 -0.14014566 -20.732431 -67.571159 72.612465 -68.342773 63.832867
-67.607742 72.931412 -25.292698 -39.768215 -57.173241 85.483879
-68.414238 61.419548 -57.268147 86.339958 -24.82489 -40.042786
880000000 -0.13910025 -20.996058 -67.178886 73.094711 -68.461037 63.42664
-67.536385 74.914551 -25.368158 -39.031719 -57.144936 85.621696
-68.894875 66.883423 -57.14967 85.611969 -24.887917 -39.397846
890000000 -0.13891976 -21.24905 -67.057892 72.976601 -68.822983 59.793587
-67.628777 73.889 -25.45071 -38.398396 -57.154114 84.055916
-68.822403 60.317299 -57.01408 85.059898 -24.947521 -38.775696
900000000 -0.13711157 -21.496485 -67.066101 76.219994 -69.056046 60.189247
-67.358063 75.776497 -25.514957 -37.761589 -57.032169 85.009857
-69.276711 59.750961 -57.043518 85.028564 -25.00243 -38.180328
910000000 -0.1352005 -21.728165 -67.427292 76.376976 -69.665459 66.426895
-67.303093 73.655449 -25.576092 -37.19931 -56.914116 84.772865
-68.86132 63.841457 -57.057632 84.601921 -25.048363 -37.573528
920000000 -0.13240699 -21.959053 -67.64238 75.136864 -69.1744 68.331009
-67.280334 78.324532 -25.624966 -36.625065 -56.978432 85.151787
-68.583839 68.070496 -56.847988 83.737274 -25.094973 -36.935665
930000000 -0.13330263 -22.182594 -66.804008 75.699615 -69.982704 69.432625
-67.009521 80.038307 -25.664021 -36.036579 -56.945343 84.562248
-69.275703 69.466599 -56.973747 84.030853 -25.135784 -36.312065
940000000 -0.1361791 -22.415667 -67.367424 78.267624 -69.745667 71.489548
-67.00367 78.24733 -25.696346 -35.343674 -56.861835 84.197235
-69.382111 69.216202 -56.839428 83.857002 -25.164968 -35.704628
