! Device:	HMC349ALP4CE								
! Description:	SOI MMIC SPDT Non-Reflective Switch
! Package:	LP4CE 16 pin 4x4 mm QFN Plastic Package								
! Frequency:	DC -  4 GHz								
!								
! Ports:								
! RFC = Port 1								
! RF1 = Port 2								
! RF2 = Port 3								
!								
! State: RF1 Selected								
!								
! Supply Voltage:								
! Vdd = +5 V								
!								
! Control Voltages: 																
! Vctl  = +5 V
! EN  = 0 V
!
! Data:	Data was collected using a calibrated network analyzer with AFR software.
!	Fixtures were calculated using AFR and fixturing was applied to collect 
!	this Deembedded  S Parameter data of HMC349ALP4CE.
!
! Note:	Analog Devices supplies this data as a sample of measured data at the package pin
!	for this product.  Your particular data for this product may vary.
!	Data was taken at 25 degrees C.
!	Analog Devices reserves the right to change this data at anytime.								
!
# Hz S  dB   R 50
10000000 -21.398294 -0.13274427 -0.82801425 -0.44287238 -68.728127 31.894358
-0.82836384 -0.38861221 -21.445412 -0.93044031 -67.558006 34.88065
-70.791969 8.9490795 -83.93084 24.742714 -0.29747793 -11.843778
20000000 -21.472614 -2.1180913 -0.83558714 -0.76464921 -70.083885 54.799648
-0.83565873 -0.73372006 -21.501686 -1.8000697 -71.311966 62.177071
-70.380386 56.413342 -75.521263 57.696781 -0.85825473 -22.436605
30000000 -21.623829 -2.7810159 -0.85045648 -1.0314116 -67.01738 21.679893
-0.84968692 -1.0252479 -21.612789 -2.666579 -68.709518 23.738537
-67.287666 16.534767 -68.936531 36.767872 -1.6307874 -31.402891
40000000 -21.773479 -2.8155487 -0.86377388 -1.2787364 -67.382568 0.43103573
-0.8627457 -1.2523769 -21.744909 -2.5527761 -69.228592 -2.3578568
-67.67263 -1.5124795 -69.0849 -3.7673945 -2.5145929 -38.687489
50000000 -21.841658 -3.0564411 -0.86843026 -1.5150706 -67.924843 -22.347166
-0.86845815 -1.5237949 -21.803083 -2.6661527 -68.813568 -12.460128
-67.4935 -21.010744 -69.123489 -4.7887754 -3.4289675 -44.619884
60000000 -21.907833 -3.0020237 -0.87521482 -1.7729795 -68.86879 -30.435743
-0.87324882 -1.7785997 -21.910885 -2.5755861 -73.779945 -23.133659
-68.87999 -24.442488 -73.264748 -5.1182318 -4.3384662 -49.357208
70000000 -21.940651 -3.0063241 -0.87997383 -2.014523 -71.502861 -33.516388
-0.87998855 -2.0083082 -21.948212 -2.528918 -72.489403 -24.850681
-69.736687 -35.37775 -70.780006 -25.049221 -5.211215 -53.142628
80000000 -21.962465 -2.9906602 -0.88426065 -2.2549939 -71.993935 -34.32254
-0.88496995 -2.2533128 -21.972937 -2.6089036 -73.258034 -26.87895
-70.855553 -46.873661 -73.126434 -26.221512 -6.0381551 -56.169247
90000000 -22.010717 -3.0139449 -0.88939285 -2.4960575 -73.421852 -31.431995
-0.88854426 -2.4942453 -22.011698 -2.6931162 -77.667412 -32.345234
-70.857613 -36.942356 -79.144943 -26.540739 -6.8206415 -58.631893
100000000 -22.053329 -3.0936186 -0.89204282 -2.7274909 -74.496147 -32.778461
-0.89142424 -2.7313061 -22.037956 -2.6413407 -74.860558 -28.886967
-73.891724 -51.481556 -73.785767 -39.228142 -7.5534792 -60.613354
110000000 -22.081612 -3.1296716 -0.89530092 -2.9724095 -74.158157 -36.493656
-0.89554435 -2.9712746 -22.066299 -2.5866315 -78.001434 -8.6272507
-72.986855 -55.680832 -79.360924 -26.148287 -8.2415857 -62.252666
120000000 -22.107311 -3.0941687 -0.89700645 -3.2129152 -74.51532 -52.234875
-0.89721131 -3.206742 -22.068983 -2.6396635 -80.117157 -15.189557
-74.628365 -44.140896 -79.995239 -2.7856255 -8.8896465 -63.594608
130000000 -22.14535 -3.0279238 -0.90135574 -3.4398863 -75.500191 -39.545395
-0.89974296 -3.4462745 -22.081711 -2.6971118 -81.542709 1.0455608
-75.089798 -48.164894 -83.706841 -11.59021 -9.5002146 -64.689293
140000000 -22.185263 -3.1096525 -0.90335143 -3.6875124 -76.939827 -53.603985
-0.90242082 -3.6886101 -22.07546 -2.7455609 -82.712105 10.180783
-76.728264 -39.597168 -84.706711 9.5445242 -10.076938 -65.607742
150000000 -22.232719 -3.151588 -0.90590823 -3.9304769 -76.42466 -48.398533
-0.90604138 -3.931462 -22.085897 -2.763195 -83.000381 23.291653
-79.080597 -45.171852 -82.899651 38.112247 -10.622485 -66.328865
160000000 -22.24329 -3.0127165 -0.90744126 -4.1579547 -77.034225 -29.900082
-0.90789324 -4.1560516 -22.079327 -2.5895188 -81.727615 55.498604
-78.928505 -33.142101 -85.412361 61.826374 -11.139145 -66.930412
170000000 -22.257589 -3.0309534 -0.90911233 -4.4018126 -79.290314 -35.899715
-0.90885431 -4.4018865 -22.087721 -2.5576785 -81.826271 37.503242
-78.745911 -34.723392 -83.025276 45.577415 -11.632351 -67.418472
180000000 -22.251986 -3.1578379 -0.90776873 -4.6462121 -81.591209 -38.365162
-0.91028845 -4.6401711 -22.097363 -2.5955987 -82.511353 51.119518
-76.725266 -33.555641 -83.902847 50.519203 -12.098495 -67.81369
190000000 -22.239876 -3.3202899 -0.9096359 -4.8849511 -78.642746 -9.8748217
-0.91045618 -4.8830552 -22.109642 -2.4952519 -79.936211 64.322166
-77.691422 -41.345921 -84.953743 40.757889 -12.54449 -68.136818
200000000 -22.241615 -3.3885872 -0.91060567 -5.1288791 -78.309967 -24.82427
-0.91117167 -5.1186633 -22.139576 -2.4592261 -77.663818 59.369331
-77.573029 -45.729797 -81.280235 37.147499 -12.972244 -68.349045
210000000 -22.216175 -3.4845364 -0.91245216 -5.3747392 -78.111687 -50.341496
-0.91159499 -5.3671246 -22.151558 -2.5191991 -79.798515 50.929813
-83.390678 -13.880482 -77.314453 61.156483 -13.382648 -68.528214
220000000 -22.197037 -3.5889664 -0.91420728 -5.6177158 -80.042259 -28.580534
-0.9136405 -5.6156459 -22.171909 -2.6022215 -76.326378 80.806496
-79.536026 -5.0525832 -76.500397 79.611122 -13.772691 -68.64019
230000000 -22.193316 -3.6684813 -0.91251862 -5.8600512 -80.59034 -14.544792
-0.91382593 -5.8630505 -22.185007 -2.6546748 -77.108322 76.949661
-82.766174 -30.025751 -75.831078 67.055626 -14.146408 -68.714935
240000000 -22.186892 -3.5784731 -0.91552442 -6.104774 -80.815781 -45.369289
-0.914958 -6.0977063 -22.19248 -2.7048881 -79.005066 70.661484
-79.200294 -20.695503 -74.659203 72.754501 -14.506591 -68.73053
250000000 -22.217182 -3.5258605 -0.91816515 -6.3443856 -80.672844 3.0528612
-0.91682565 -6.3441672 -22.198494 -2.7802744 -74.998566 77.791771
-82.339981 4.9664769 -76.007813 87.734612 -14.855268 -68.691017
260000000 -22.218214 -3.335803 -0.91852617 -6.5762472 -86.029564 34.407295
-0.91642636 -6.5781121 -22.173113 -2.6970108 -77.697937 70.474129
-80.926682 -85.466713 -76.423462 101.58772 -15.196877 -68.630722
270000000 -22.205181 -3.2589667 -0.91964102 -6.8190703 -79.13768 19.351974
-0.91769785 -6.8198276 -22.150681 -2.7656431 -73.405037 84.47097
-81.248184 -2.7480795 -76.750374 88.736115 -15.516395 -68.546043
280000000 -22.21715 -3.3207538 -0.91761196 -7.0602088 -76.20549 33.846226
-0.91733313 -7.056807 -22.150074 -2.8124633 -75.04303 76.916916
-90.288719 -24.263386 -78.485565 102.67553 -15.833199 -68.409607
290000000 -22.206299 -3.4410932 -0.92089248 -7.3099675 -87.040359 -25.185947
-0.91824907 -7.3007622 -22.154966 -2.7718081 -72.08683 64.664902
-81.905617 16.883255 -75.213707 66.924225 -16.142914 -68.275368
300000000 -22.204096 -3.5533659 -0.9210282 -7.5522709 -78.170448 -24.192537
-0.9207474 -7.5510168 -22.168144 -2.7619584 -74.635666 83.546471
-83.667915 13.814407 -73.123474 79.922295 -16.433607 -68.132637
310000000 -22.200457 -3.6744156 -0.92375326 -7.7914882 -86.297379 -4.9819469
-0.92092085 -7.7885833 -22.166435 -2.9053149 -74.411301 91.211983
-86.927544 -74.322639 -74.227791 86.28566 -16.722208 -67.979652
320000000 -22.212919 -3.8225338 -0.92281485 -8.0427799 -80.192368 -9.5571146
-0.92080736 -8.0451336 -22.175489 -2.9649065 -72.630707 80.606621
-83.146263 -6.821774 -72.658699 90.042068 -16.99119 -67.713623
330000000 -22.221819 -3.7890739 -0.92117649 -8.298625 -77.123871 11.457576
-0.92346144 -8.287055 -22.191797 -3.0890009 -75.288071 74.541191
-86.398239 0.34961 -73.810471 97.041656 -17.259104 -67.495262
340000000 -22.228783 -3.7594805 -0.92419147 -8.530098 -78.887459 -27.042757
-0.92322022 -8.5280533 -22.167389 -3.2000802 -74.196815 82.797379
-84.925835 -4.3699694 -73.349709 72.132637 -17.513208 -67.240257
350000000 -22.228569 -3.8083546 -0.923379 -8.7710161 -81.725807 27.02109
-0.92458129 -8.7728224 -22.157381 -3.2076783 -72.075134 93.10321
-81.054611 5.8319836 -72.026443 86.464317 -17.767612 -66.932388
360000000 -22.219648 -3.9540823 -0.92469865 -9.0158749 -83.694702 11.320485
-0.92499936 -9.0118809 -22.140514 -3.2187138 -71.073601 87.428055
-78.499268 -3.2879674 -72.284309 90.507782 -18.014156 -66.653008
370000000 -22.209402 -3.9807081 -0.92590111 -9.2479563 -81.892189 23.110889
-0.92531997 -9.2538414 -22.141357 -3.2512057 -72.801247 79.177795
-83.11058 17.206549 -72.591812 83.559456 -18.253614 -66.364334
380000000 -22.19113 -4.1751556 -0.92730349 -9.4891815 -82.834984 10.952299
-0.92687583 -9.4945793 -22.145199 -3.2086728 -72.435913 76.295326
-80.429993 23.197279 -72.341644 74.752975 -18.492863 -66.031837
390000000 -22.180063 -4.3047361 -0.92680371 -9.7370949 -80.82341 12.022285
-0.92658705 -9.7291088 -22.162107 -3.2480068 -70.424675 81.253357
-82.093826 -11.397399 -71.136185 83.279793 -18.722263 -65.705101
400000000 -22.176451 -4.5456491 -0.92847884 -9.9864559 -78.77874 4.4359155
-0.92841387 -9.9762611 -22.165457 -3.2816749 -72.225166 73.208588
-82.036362 16.373652 -70.65976 90.183075 -18.941216 -65.374557
410000000 -22.173111 -4.7877693 -0.93017757 -10.228081 -82.479919 -3.1747229
-0.93014777 -10.226304 -22.175776 -3.3238077 -71.335083 86.22554
-81.97364 0.46442559 -70.913712 82.559326 -19.160679 -65.027496
420000000 -22.153629 -4.8576112 -0.92901337 -10.469427 -82.233894 27.956543
-0.93108666 -10.472183 -22.191141 -3.4004788 -70.393883 84.003494
-82.719124 24.473375 -69.992538 90.3265 -19.364241 -64.679619
430000000 -22.156878 -4.8740044 -0.9288891 -10.707938 -81.969261 31.689066
-0.93072522 -10.708613 -22.169897 -3.4042232 -70.899162 86.455162
-83.257042 19.285223 -70.809059 88.105423 -19.566576 -64.347626
440000000 -22.144339 -4.8488045 -0.92930597 -10.952513 -81.985023 19.934212
-0.93212724 -10.952481 -22.159588 -3.4622972 -70.370102 91.270111
-85.333534 22.592003 -70.165047 85.881241 -19.765827 -63.943577
450000000 -22.141781 -4.7791209 -0.93008816 -11.197214 -81.503151 28.795715
-0.9320538 -11.196982 -22.129311 -3.5237339 -70.191734 96.930054
-80.716782 43.525784 -69.446251 91.925728 -19.95158 -63.546688
460000000 -22.124857 -4.804225 -0.93113029 -11.437306 -82.519348 34.212212
-0.93168569 -11.440229 -22.115206 -3.4526715 -69.379814 90.452293
-78.899033 30.548483 -69.715645 95.853897 -20.144077 -63.17136
470000000 -22.121103 -4.8722615 -0.93009889 -11.687094 -80.966743 34.1786
-0.93213844 -11.685954 -22.082386 -3.4250233 -69.619438 90.35791
-82.570587 32.63652 -69.7295 90.165161 -20.324633 -62.797176
480000000 -22.121956 -4.9348707 -0.93224931 -11.930085 -82.336456 36.633148
-0.93391663 -11.926296 -22.062014 -3.4776881 -69.241661 88.077408
-80.816261 24.683039 -69.160042 88.390457 -20.496672 -62.368259
490000000 -22.110252 -5.0683608 -0.93266416 -12.171135 -81.545959 36.470062
-0.93430567 -12.177239 -22.068228 -3.457206 -69.059677 90.592957
-84.648285 34.275394 -68.769966 89.858459 -20.667631 -61.924847
500000000 -22.091963 -5.2943234 -0.93370718 -12.415835 -82.562447 27.27273
-0.93474603 -12.417607 -22.074862 -3.5250614 -69.557678 89.77124
-80.432899 48.697994 -69.287437 90.299507 -20.836 -61.421909
510000000 -22.095909 -5.4582891 -0.93489301 -12.66174 -87.501404 9.9871159
-0.93430579 -12.661199 -22.065683 -3.5927095 -69.138412 94.410088
-81.889053 35.033604 -70.306267 86.499329 -21.001118 -60.913658
520000000 -22.106592 -5.4955807 -0.93645012 -12.901816 -79.981186 47.551407
-0.93601334 -12.909043 -22.082596 -3.8140864 -68.552536 92.089043
-79.603271 37.691063 -69.16259 91.749992 -21.163668 -60.372719
530000000 -22.11227 -5.5390415 -0.93573159 -13.147038 -79.93026 42.239738
-0.93615347 -13.147011 -22.078135 -3.9639964 -68.001144 92.991676
-81.383537 45.863842 -68.876442 96.373329 -21.325487 -59.870262
540000000 -22.104393 -5.5792356 -0.93874401 -13.386279 -83.281921 40.130211
-0.93649572 -13.394301 -22.058203 -4.0373096 -68.354538 99.130913
-79.832603 31.037558 -68.331261 95.214211 -21.485281 -59.281685
550000000 -22.099852 -5.562593 -0.93734992 -13.635372 -79.943939 32.35474
-0.93672508 -13.638858 -22.05757 -4.1438127 -68.392784 93.982155
-82.787338 27.174795 -67.534065 96.910339 -21.640961 -58.836636
560000000 -22.094769 -5.5911536 -0.93943536 -13.876295 -78.773445 43.463501
-0.93883187 -13.871277 -22.021763 -4.1701813 -68.357056 92.673965
-84.661964 50.727856 -67.749275 91.259338 -21.799152 -58.340405
570000000 -22.076731 -5.7599239 -0.93813175 -14.121883 -79.098007 38.693161
-0.93726999 -14.120605 -22.009504 -4.1320786 -67.950844 96.304169
-80.573357 44.778233 -67.986473 102.38489 -21.957022 -57.946877
580000000 -22.069067 -5.8979807 -0.93938071 -14.360248 -78.752998 52.987377
-0.9391771 -14.36132 -21.982983 -4.1441126 -67.514313 95.822441
-81.261559 40.700001 -67.22216 99.758369 -22.101553 -57.47633
590000000 -22.046387 -6.0074277 -0.93831182 -14.609621 -79.06237 48.315712
-0.93992114 -14.607212 -21.987335 -4.2855554 -67.794357 90.620041
-79.112755 45.352486 -68.15461 90.07972 -22.228785 -57.059807
600000000 -22.046419 -6.2238398 -0.93969131 -14.862099 -85.042549 19.268562
-0.93916196 -14.854693 -21.981007 -4.2528491 -67.4589 97.331116
-78.43721 51.660816 -67.572144 89.423576 -22.362299 -56.592892
610000000 -22.051617 -6.3379483 -0.94036919 -15.101455 -78.174614 44.847446
-0.94120061 -15.100382 -21.985893 -4.3776345 -67.406174 95.711975
-78.794991 42.297199 -67.491364 93.723343 -22.476255 -56.064465
620000000 -22.047121 -6.4133587 -0.94138837 -15.348854 -80.464409 49.334827
-0.94263375 -15.346808 -21.980927 -4.4797463 -67.70343 97.396919
-79.225052 56.760574 -67.951462 95.355019 -22.599936 -55.47298
630000000 -22.066328 -6.4132857 -0.9430747 -15.592108 -76.579086 42.461704
-0.94315892 -15.592072 -21.967098 -4.546546 -67.054443 99.633865
-78.885361 50.136463 -67.346596 100.50549 -22.715019 -54.845451
640000000 -22.065548 -6.4213076 -0.94321465 -15.842511 -78.770317 46.830608
-0.94265687 -15.836623 -21.952421 -4.6863565 -67.523293 98.867775
-76.936348 47.526157 -67.018303 94.400421 -22.836363 -54.200077
650000000 -22.076759 -6.4480662 -0.94431871 -16.079708 -77.49173 39.613251
-0.94458711 -16.08033 -21.928543 -4.7916837 -66.976204 96.980652
-77.168182 40.969898 -67.052628 96.800659 -22.947151 -53.513241
660000000 -22.077988 -6.5092711 -0.94489098 -16.318586 -78.653511 61.335529
-0.9432376 -16.321312 -21.920782 -4.740387 -66.965309 101.72838
-78.075951 55.692692 -66.827072 100.00198 -23.078648 -52.866905
670000000 -22.05895 -6.6597323 -0.94681227 -16.563765 -76.137169 52.9837
-0.94403315 -16.566923 -21.903397 -4.7433553 -66.899208 99.578094
-76.328285 54.19804 -66.433266 101.26882 -23.195433 -52.280319
680000000 -22.050154 -6.8937407 -0.94452798 -16.806347 -76.652763 48.468868
-0.94458002 -16.804209 -21.905916 -4.7485886 -66.274048 98.695412
-76.311829 52.060322 -66.590721 99.290588 -23.315981 -51.67551
690000000 -22.026047 -7.117373 -0.94823861 -17.052204 -75.520889 46.619007
-0.94466406 -17.057364 -21.90477 -4.774209 -66.555084 97.865074
-76.488525 48.104572 -66.615295 97.954033 -23.413845 -51.079525
700000000 -22.001663 -7.3539963 -0.9463765 -17.299755 -74.70359 49.188507
-0.94599354 -17.292486 -21.922195 -4.8302388 -66.670532 102.55456
-74.734543 50.393814 -66.831772 104.7248 -23.527626 -50.526241
710000000 -21.995159 -7.5051775 -0.9465223 -17.541443 -75.079262 50.026886
-0.94779992 -17.53903 -21.927448 -4.9001975 -66.430099 103.54047
-75.931686 50.142067 -66.204124 104.77634 -23.624083 -49.970917
720000000 -21.98959 -7.5064788 -0.94790858 -17.782873 -75.013657 49.103691
-0.94703835 -17.783075 -21.93144 -4.9423742 -66.521568 108.25839
-76.360031 56.454254 -66.448502 106.8811 -23.730413 -49.38382
730000000 -21.995615 -7.5074973 -0.94729084 -18.034733 -74.838585 50.357918
-0.94764221 -18.027182 -21.913101 -5.0153069 -66.422775 104.93051
-75.13649 46.537857 -66.234833 102.44827 -23.815628 -48.701225
740000000 -21.990702 -7.4522495 -0.94721377 -18.269123 -74.650902 41.602688
-0.94776642 -18.273132 -21.889652 -5.1119041 -66.094643 106.25116
-75.433807 51.687267 -65.639954 109.05602 -23.906097 -48.135754
750000000 -21.979221 -7.4299283 -0.94796187 -18.517111 -74.470657 41.465858
-0.94822967 -18.515759 -21.859356 -5.1337705 -66.496284 111.2929
-75.734932 40.375557 -65.88205 109.76441 -24.009668 -47.462341
760000000 -21.978636 -7.5307302 -0.94887632 -18.768103 -75.62468 42.373013
-0.95138049 -18.764656 -21.848131 -5.2132339 -65.932343 109.96869
-76.149078 42.880924 -66.057838 107.62646 -24.095247 -46.864498
770000000 -21.967766 -7.7289729 -0.94867349 -19.016283 -74.419815 42.980068
-0.95032257 -19.013037 -21.821949 -5.2183371 -65.298759 115.30866
-74.242798 45.549469 -65.819969 110.19303 -24.177788 -46.267269
780000000 -21.953306 -7.945251 -0.95212251 -19.266306 -74.667809 34.855412
-0.95099485 -19.260921 -21.807329 -5.1862984 -65.776581 111.62083
-74.347221 37.013302 -65.80748 113.11362 -24.265926 -45.697666
790000000 -21.943998 -8.2306089 -0.9491806 -19.509167 -73.384651 41.144287
-0.95275384 -19.507215 -21.81217 -5.3279972 -65.505867 116.23474
-73.549538 41.390148 -65.413193 116.84319 -24.347963 -45.168015
800000000 -21.915363 -8.4060154 -0.94870961 -19.759169 -73.110245 41.71217
-0.95104879 -19.757504 -21.818382 -5.311924 -65.085167 115.57159
-72.55249 39.899277 -65.278297 110.40351 -24.414799 -44.582561
810000000 -21.912292 -8.555377 -0.94965285 -20.000553 -73.129799 40.30093
-0.95173556 -19.997721 -21.807276 -5.3512239 -65.435669 117.05354
-73.092262 35.851616 -65.100464 118.34181 -24.473749 -44.018925
820000000 -21.88431 -8.5815964 -0.95173609 -20.244617 -71.705925 37.609276
-0.95408994 -20.242517 -21.806644 -5.4066029 -65.046234 116.29775
-72.268341 33.591232 -65.330559 114.52081 -24.541649 -43.437889
830000000 -21.883741 -8.553195 -0.95385039 -20.486013 -71.427032 37.196747
-0.95517719 -20.488762 -21.793785 -5.4836354 -64.501762 118.23277
-71.679283 34.911152 -64.467796 119.05125 -24.590557 -42.792419
840000000 -21.864071 -8.48456 -0.95543724 -20.726196 -71.328972 31.202818
-0.95739269 -20.728088 -21.78491 -5.5515285 -64.278465 121.21649
-71.267868 34.132122 -64.68045 118.82528 -24.65209 -42.159531
850000000 -21.85285 -8.5109529 -0.95419985 -20.973087 -70.349136 29.667084
-0.95704025 -20.973436 -21.745859 -5.5154419 -64.436516 121.75405
-70.465965 29.708683 -64.569504 123.79037 -24.709982 -41.476799
860000000 -21.812744 -8.5615463 -0.95748234 -21.219633 -70.037872 28.118118
-0.9594329 -21.215014 -21.710075 -5.5746455 -63.861126 125.38464
-71.213425 29.439003 -64.170944 124.02323 -24.763811 -40.780346
870000000 -21.805937 -8.7583723 -0.95772886 -21.470314 -70.17984 27.304777
-0.95812339 -21.463198 -21.690517 -5.6689754 -64.113518 122.37884
-70.275681 24.996391 -63.827179 122.91978 -24.835892 -40.11993
880000000 -21.789253 -9.0705404 -0.95834333 -21.72027 -70.038567 20.038122
-0.96011358 -21.712513 -21.673048 -5.7858262 -63.393257 127.83314
-70.074013 22.34026 -63.852818 127.50511 -24.892414 -39.457764
890000000 -21.780663 -9.3100538 -0.96038085 -21.965364 -69.284813 19.881466
-0.96170157 -21.956337 -21.679272 -5.9477606 -63.483631 126.36801
-69.816643 16.304888 -63.435051 127.48558 -24.956343 -38.850132
900000000 -21.783298 -9.5361233 -0.96224898 -22.212198 -69.067398 12.651731
-0.96400863 -22.205532 -21.663591 -6.1313982 -62.609592 129.03523
-69.196182 18.049324 -62.739895 129.12775 -25.008305 -38.243439
910000000 -21.777958 -9.7195559 -0.96350896 -22.455605 -68.762131 9.5016174
-0.96446526 -22.45026 -21.663979 -6.2562628 -62.670036 132.02989
-68.647285 12.52334 -62.328068 129.41986 -25.05335 -37.66153
920000000 -21.769226 -9.7972145 -0.96462315 -22.700081 -68.243797 9.6918497
-0.96584201 -22.697296 -21.641882 -6.4053869 -61.492496 132.21933
-68.16787 6.4065223 -61.740841 132.77359 -25.100712 -37.03973
930000000 -21.781235 -9.9011211 -0.96624178 -22.943476 -68.564453 -0.59952331
-0.96851236 -22.932896 -21.611069 -6.5029416 -61.38271 131.93105
