! Device:	HMC349ALP4CE								
! Description:	SOI MMIC SPDT Non-Reflective Switch
! Package:	LP4CE 16 pin 4x4 mm QFN Plastic Package								
! Frequency:	DC -  4 GHz								
!								
! Ports:								
! RFC = Port 1								
! RF1 = Port 2								
! RF2 = Port 3								
!								
! State: All Off								
!								
! Supply Voltage:								
! Vdd = +5 V								
!								
! Control Voltages: 																
! Vctl  = +5 V
! EN  = +5 V
!
! Data:	Data was collected using a calibrated network analyzer with AFR software.
!	Fixtures were calculated using AFR and fixturing was applied to collect 
!	this Deembedded  S Parameter data of HMC349ALP4CE.
!
! Note:	Analog Devices supplies this data as a sample of measured data at the package pin
!	for this product.  Your particular data for this product may vary.
!	Data was taken at 25 degrees C.
!	Analog Devices reserves the right to change this data at anytime.								
!
# Hz S  dB   R 50
10000000 -0.057789829 -0.34473351 -64.053139 48.617176 -63.892391 62.953705
-66.160591 76.913879 -0.30993393 -11.868616 -73.880043 -26.959021
-64.026161 61.801983 -67.534004 -25.64806 -0.29632083 -11.829477
20000000 -0.061225947 -0.6876893 -65.379456 37.710091 -68.779381 44.006027
-64.029419 41.740826 -0.85779631 -22.404743 -76.895454 -120.37475
-66.154106 44.628387 -78.531258 -92.801491 -0.85497707 -22.435925
30000000 -0.073349632 -0.97429222 -63.725063 20.642424 -62.269844 22.513224
-62.211857 19.755594 -1.6337825 -31.398613 -87.424637 92.99366
-62.881847 18.586752 -93.006783 -162.44066 -1.62775 -31.402424
40000000 -0.087402262 -1.1694965 -62.41011 -0.17557716 -62.316177 -4.7257786
-62.861767 0.34252456 -2.5187213 -38.688881 -89.606018 100.91641
-62.426907 -4.4776363 -92.83567 88.533836 -2.5105436 -38.695549
50000000 -0.09003406 -1.402615 -63.043102 -14.159763 -62.41293 -16.814924
-63.160904 -13.763316 -3.4318752 -44.639778 -86.524284 175.65086
-62.374908 -11.916231 -81.085136 137.76147 -3.4243457 -44.620453
60000000 -0.094489723 -1.653661 -63.060154 -28.104614 -64.466888 -27.452986
-64.382767 -24.676241 -4.3383956 -49.410202 -82.878296 126.97173
-65.664482 -22.662781 -85.648087 110.25408 -4.3315239 -49.369873
70000000 -0.097687051 -1.895215 -65.593964 -39.502254 -65.309204 -24.817066
-65.399994 -33.803589 -5.2121582 -53.1912 -78.50547 121.32249
-65.216705 -31.736649 -81.032784 121.99006 -5.2037549 -53.155048
80000000 -0.1005177 -2.1310053 -66.004112 -35.698849 -67.069168 -40.683651
-66.405731 -34.82576 -6.0404687 -56.254532 -81.752045 157.55945
-66.757538 -36.472351 -86.181549 172.90073 -6.032166 -56.184868
90000000 -0.10187721 -2.3741066 -67.973503 -38.655216 -68.765968 -40.865635
-67.149033 -44.50201 -6.8192496 -58.747238 -80.779793 117.8308
-68.652405 -38.521542 -78.6875 128.68059 -6.8129497 -58.651108
100000000 -0.10537658 -2.5909176 -68.930054 -47.669491 -68.34745 -46.471066
-68.055817 -44.765533 -7.5508866 -60.774696 -76.510193 127.02289
-68.310715 -46.175163 -77.610367 144.73349 -7.545083 -60.64172
110000000 -0.10776016 -2.813637 -69.197006 -45.187965 -70.439049 -45.478741
-70.133331 -43.397362 -8.2394609 -62.438347 -77.098679 122.31951
-70.109924 -45.767345 -75.908257 116.29951 -8.2341566 -62.273258
120000000 -0.11072823 -3.0454049 -71.567162 -46.017132 -71.750938 -51.275047
-71.211823 -45.076763 -8.8850794 -63.787521 -74.178497 117.15987
-71.701508 -39.721653 -74.622078 117.85667 -8.8817835 -63.620071
130000000 -0.11409047 -3.2585061 -73.636581 -39.037487 -72.320435 -37.172104
-73.104294 -44.616077 -9.4911146 -64.872246 -74.860863 113.22085
-72.770317 -45.136372 -76.190964 116.94754 -9.4908648 -64.714279
140000000 -0.11724414 -3.5034864 -73.096115 -42.299725 -73.727135 -40.891457
-73.332283 -36.822834 -10.066634 -65.774971 -73.139999 116.89729
-72.987961 -41.71011 -74.433609 118.29282 -10.067986 -65.629852
150000000 -0.12448274 -3.729507 -76.403694 -36.277111 -73.440804 -35.658928
-74.932671 -31.907534 -10.614472 -66.495911 -73.050369 106.40901
-74.645836 -38.044514 -72.876213 108.53368 -10.612758 -66.363617
160000000 -0.12613238 -3.9742527 -74.522598 -39.162426 -75.251663 -43.27692
-75.266014 -26.19599 -11.136362 -67.083496 -72.752937 110.31272
-76.74765 -38.251476 -71.872223 109.82925 -11.129114 -66.96949
170000000 -0.12938987 -4.2099795 -75.28566 -35.210949 -75.232224 -30.551918
-76.209496 -36.434765 -11.63301 -67.568169 -71.671829 110.35799
-75.894287 -30.59626 -71.801018 109.30096 -11.621792 -67.45713
180000000 -0.12864101 -4.4693871 -77.713348 -20.150551 -75.76432 -51.033226
-76.48513 -26.084225 -12.109131 -67.981888 -73.234344 109.32723
-74.739975 -44.285164 -71.587379 124.27705 -12.087087 -67.851563
190000000 -0.12636279 -4.7190557 -77.601372 -21.011894 -75.95166 -33.228291
-75.609123 -9.8829298 -12.562081 -68.295319 -70.867218 107.11224
-75.14566 -26.435043 -70.529823 106.10132 -12.535688 -68.168983
200000000 -0.12825036 -4.9622569 -78.342422 -10.884279 -75.471619 -2.0675688
-77.012527 2.7890007 -12.99483 -68.590721 -69.070259 99.926826
-74.414803 -12.502244 -69.941559 108.21603 -12.964519 -68.404076
210000000 -0.12664352 -5.2066374 -75.652107 -0.47349608 -75.988594 -17.00729
-78.028358 -12.473422 -13.403693 -68.807152 -70.291756 98.863762
-79.476532 -11.154995 -69.94442 100.79237 -13.370399 -68.563698
220000000 -0.12669897 -5.4387593 -77.478134 11.616021 -79.384529 -6.5716128
-77.894241 -10.613492 -13.798019 -68.980659 -69.470612 101.85376
-80.597633 -56.075813 -69.025101 107.21215 -13.760644 -68.687782
230000000 -0.12532625 -5.6688986 -77.937836 0.42583731 -77.038345 7.7603903
-80.197189 17.761412 -14.168997 -69.057144 -68.672195 105.63779
-76.279449 -0.38248336 -68.930305 102.55758 -14.135661 -68.758537
240000000 -0.1278946 -5.8909655 -76.290489 14.090398 -79.315498 7.096283
-81.448273 2.630511 -14.528615 -69.07856 -68.939117 107.68264
-79.765999 4.0866008 -68.403503 103.91011 -14.493622 -68.761681
250000000 -0.1307883 -6.1115265 -76.008385 30.752457 -78.311226 -13.193469
-78.342979 31.574667 -14.876147 -69.07534 -67.650223 110.05401
-80.164917 -6.4739718 -67.782661 102.26791 -14.846261 -68.746582
260000000 -0.13147539 -6.3369222 -74.18782 19.491077 -81.211784 15.419798
-76.980553 36.169327 -15.218816 -68.96788 -66.872528 109.09455
-80.1427 3.0955441 -68.255775 99.865814 -15.183283 -68.694618
270000000 -0.12926959 -6.5536766 -80.165657 53.513721 -81.360352 17.083965
-77.396851 13.0137 -15.550861 -68.933365 -67.512115 104.62532
-79.215004 44.200344 -67.63607 95.35527 -15.504144 -68.597618
280000000 -0.12961711 -6.7925005 -78.560379 25.057358 -78.973495 38.071892
-73.9702 12.901139 -15.866364 -68.780678 -67.082878 101.9466
-80.791763 -10.608047 -67.46183 104.05494 -15.827895 -68.460564
290000000 -0.13053651 -7.041357 -80.969757 26.099566 -73.734032 7.6543756
-80.799057 48.77425 -16.184753 -68.68306 -67.185127 97.219193
-74.61776 28.329872 -67.179985 106.12396 -16.131628 -68.331711
300000000 -0.12977749 -7.2730756 -75.940994 37.758911 -75.457474 32.788441
-77.642914 29.980934 -16.483788 -68.580261 -65.865723 95.278076
-79.000053 23.093992 -66.745888 103.2636 -16.427803 -68.164566
310000000 -0.12943049 -7.5030456 -74.791649 30.234737 -77.169029 40.560848
-79.677902 20.978771 -16.768145 -68.402817 -66.340111 102.94578
-80.200417 24.96376 -65.477753 98.421486 -16.71513 -67.99807
320000000 -0.12958845 -7.7370114 -76.938705 41.638744 -79.806175 33.338844
-73.303818 41.500988 -17.040087 -68.236221 -65.514626 93.32074
-77.194893 36.312244 -65.640129 103.85643 -16.982073 -67.76133
330000000 -0.13278039 -7.9807396 -74.876274 53.701096 -80.472466 29.7509
-74.567726 21.487034 -17.297407 -68.052765 -65.376534 95.707916
-78.599678 47.719402 -65.404221 96.029869 -17.253809 -67.565262
340000000 -0.13395226 -8.1969891 -75.03421 34.014153 -75.475258 28.341877
-75.119301 43.349613 -17.552055 -67.793221 -65.580109 97.969223
-77.317909 39.552826 -65.207649 100.28082 -17.505297 -67.293655
350000000 -0.13389118 -8.4297543 -74.894157 48.190834 -73.01606 36.891411
-75.916374 44.552158 -17.803631 -67.503761 -64.57251 95.416901
-74.240295 41.426216 -64.538223 94.883667 -17.760036 -66.975212
360000000 -0.13683787 -8.6700611 -72.852089 45.806175 -75.252396 44.953732
-76.185394 55.151886 -18.046535 -67.136635 -64.833084 96.071526
-77.133896 52.38332 -64.344124 99.701935 -18.009197 -66.705139
370000000 -0.13772304 -8.9088297 -75.339111 53.626865 -77.607979 33.918594
-74.293068 41.60141 -18.290081 -66.798744 -65.045097 96.263817
-76.06572 36.03944 -64.14711 96.971375 -18.249434 -66.422035
380000000 -0.14079125 -9.1576014 -73.57209 47.968311 -72.535912 28.99641
-73.127754 49.876209 -18.541933 -66.472511 -64.335548 98.185661
-74.418587 26.102091 -64.089989 97.050423 -18.481634 -66.082924
390000000 -0.13974173 -9.4048738 -73.955246 47.807182 -74.320038 33.785538
-74.950546 46.61256 -18.773443 -66.137169 -64.208588 92.751678
-75.247086 32.980343 -63.82814 97.339706 -18.711437 -65.747002
400000000 -0.14068608 -9.6442137 -74.375916 49.973915 -74.559189 40.9216
-73.870087 48.843033 -19.01059 -65.82502 -63.901989 93.16201
-74.977402 37.535347 -63.829632 96.353348 -18.932529 -65.405052
410000000 -0.14129913 -9.8682728 -71.532074 55.004601 -76.93811 48.383099
-73.234573 50.142426 -19.226381 -65.463829 -63.78231 95.773811
-75.601532 31.449961 -63.417225 93.232025 -19.155283 -65.069252
420000000 -0.14036864 -10.093022 -73.977898 50.715336 -74.795006 56.359192
-74.060799 58.357582 -19.437557 -65.176483 -63.760132 93.983879
-74.171181 51.842659 -63.256611 94.711159 -19.360775 -64.735039
430000000 -0.13668486 -10.314525 -73.960548 53.646118 -75.955711 41.849152
-72.334351 55.894276 -19.638088 -64.810654 -63.35479 95.733955
-74.245888 60.949398 -63.368988 95.888512 -19.561682 -64.389862
440000000 -0.13598561 -10.532761 -72.963333 49.132244 -74.586166 49.942902
-72.353165 54.764164 -19.830744 -64.434181 -63.362183 95.525459
-73.931931 44.075783 -62.968525 93.768639 -19.763691 -64.0168
450000000 -0.13698107 -10.763891 -72.846008 54.726295 -73.569534 56.016048
-72.47094 58.761955 -20.022217 -64.015984 -62.74139 93.226418
-74.593628 57.545601 -62.922794 92.837906 -19.947975 -63.600552
460000000 -0.13789776 -10.988909 -72.199806 58.167374 -73.819336 58.709629
-73.479202 67.745926 -20.213833 -63.523705 -62.638783 94.169388
-73.810242 57.798878 -62.734688 94.658073 -20.142122 -63.222511
470000000 -0.13677338 -11.231752 -72.300919 54.814068 -73.903198 51.972317
-71.476105 62.653687 -20.406977 -63.040855 -62.337444 94.535667
-72.957184 47.547054 -62.40089 92.642105 -20.324203 -62.835651
480000000 -0.13716605 -11.477226 -70.86512 63.768852 -73.821754 47.87162
-72.323593 60.072086 -20.598005 -62.570877 -62.208309 95.040443
-73.394615 49.73822 -62.179039 93.925591 -20.497028 -62.431107
490000000 -0.13633911 -11.72739 -72.491081 60.063019 -74.402145 53.906292
-72.076401 61.101254 -20.791527 -62.153042 -62.114056 92.626221
-72.266182 59.700657 -62.185829 93.949081 -20.666832 -62.015919
500000000 -0.13804542 -11.972208 -72.199135 59.87759 -73.121674 49.69529
-71.944084 58.829655 -20.978239 -61.690937 -61.674019 92.817436
-73.098572 49.305168 -61.798859 92.970367 -20.834063 -61.470192
510000000 -0.13665275 -12.200183 -71.181839 58.914944 -73.39267 51.539879
-71.728706 57.51292 -21.159452 -61.255482 -61.90366 92.590469
-72.611725 53.627853 -61.684273 96.408264 -20.997477 -60.969296
520000000 -0.13577998 -12.430993 -71.516739 60.720329 -73.343025 56.207863
-70.914024 68.993378 -21.323956 -60.878029 -61.559994 90.831657
-73.459167 63.992619 -61.665474 91.610451 -21.163795 -60.42292
530000000 -0.13583508 -12.64988 -71.329605 62.312527 -72.481956 72.549179
-71.174362 50.967461 -21.484837 -60.408325 -61.413223 91.417961
-71.695938 64.711975 -61.532356 93.284302 -21.332079 -59.896103
540000000 -0.1375197 -12.879395 -71.461372 56.220512 -72.459671 58.035454
-71.656013 65.661079 -21.640678 -59.957745 -61.245014 93.103615
-72.070488 60.994976 -61.063057 91.452148 -21.487453 -59.335526
550000000 -0.1376323 -13.114484 -70.784264 69.26667 -70.711617 58.576515
-72.134987 63.779045 -21.79822 -59.439743 -61.548103 90.729446
-71.721237 55.136326 -60.970402 89.728325 -21.651085 -58.892063
560000000 -0.13855214 -13.352827 -70.934601 68.067879 -71.067039 54.200764
-71.213676 66.642776 -21.945314 -58.904755 -60.884933 91.876183
-70.223335 52.731792 -60.734612 94.848213 -21.804724 -58.367424
570000000 -0.14001356 -13.595423 -71.033714 66.332848 -71.722984 61.385757
-71.164871 67.130035 -22.095928 -58.316715 -60.824993 92.071365
-72.024132 63.28516 -60.700455 93.895386 -21.96686 -58.002071
580000000 -0.13991383 -13.843911 -70.770164 58.724854 -71.94503 68.747063
-71.057228 64.342064 -22.245514 -57.788536 -60.504284 90.908752
-70.682274 63.053635 -60.679531 91.622284 -22.108807 -57.52177
590000000 -0.13854653 -14.090418 -70.976723 64.710251 -71.124832 54.4216
-71.179451 60.37466 -22.395313 -57.310539 -60.505356 91.608414
-71.470871 58.034336 -60.432899 90.684677 -22.240133 -57.087288
600000000 -0.13456842 -14.329494 -69.997246 69.601173 -71.967583 52.434212
-70.480362 65.970253 -22.544094 -56.758846 -60.093533 90.260956
-71.868988 59.136852 -60.269035 91.668602 -22.368555 -56.602879
610000000 -0.13514945 -14.561168 -70.401939 65.654579 -71.941544 62.19759
-69.98835 64.963097 -22.68358 -56.203087 -60.575283 92.007851
-71.569664 62.336971 -60.345627 90.438553 -22.488651 -56.097893
620000000 -0.13513657 -14.795692 -69.498169 68.932251 -71.43763 58.079796
-70.053917 63.717327 -22.822775 -55.700573 -60.110882 91.551476
-70.809334 53.847759 -59.850922 91.615982 -22.609827 -55.496849
630000000 -0.13519096 -15.016969 -68.684341 66.280426 -70.891068 62.635288
-69.854126 67.023445 -22.944881 -55.065086 -59.803478 92.490974
-70.642365 59.280518 -59.98661 92.856972 -22.725573 -54.873539
640000000 -0.13509813 -15.257321 -69.700516 67.290909 -70.92453 55.615715
-70.332817 66.926025 -23.06432 -54.477688 -59.695297 90.889221
-70.11631 61.583698 -59.469727 89.155922 -22.846067 -54.217606
650000000 -0.13544379 -15.489122 -69.848419 68.704483 -70.031578 52.601257
-69.624725 67.622375 -23.20278 -53.84935 -59.637138 90.675591
-70.896591 58.115807 -59.701183 91.090965 -22.963938 -53.569557
660000000 -0.13920373 -15.734195 -69.585533 71.206223 -70.654839 60.407322
-69.430641 68.048882 -23.322817 -53.193375 -59.501137 88.700394
-70.111496 59.160069 -59.627861 90.212677 -23.092295 -52.904526
670000000 -0.14413679 -15.974675 -69.847244 69.96991 -70.69381 60.101219
-69.271561 66.621239 -23.444202 -52.569546 -59.808266 91.59877
-70.5616 62.132504 -59.259842 91.110664 -23.219017 -52.302353
680000000 -0.14333181 -16.22576 -70.064209 71.121979 -69.9561 59.918278
-68.391579 64.89769 -23.566334 -51.856487 -59.33707 89.704262
-69.525566 57.771133 -59.079643 89.541412 -23.336048 -51.717854
690000000 -0.14213328 -16.464382 -68.672836 69.934258 -69.400833 56.332508
-69.510559 74.394554 -23.690948 -51.3036 -59.131691 90.468285
-70.180168 55.304592 -59.1987 89.219231 -23.434494 -51.158978
700000000 -0.14101344 -16.700411 -68.931664 70.718773 -70.283325 59.208023
-69.331871 69.044785 -23.805056 -50.704678 -59.03249 90.624496
-70.289215 62.20435 -58.895462 90.071312 -23.546852 -50.583298
710000000 -0.14059566 -16.926374 -68.664139 71.112328 -70.090599 62.391571
-68.942642 70.260994 -23.917061 -50.120026 -58.93716 89.125298
-69.888412 62.689049 -58.863285 88.783707 -23.648804 -50.030209
720000000 -0.13991879 -17.14677 -68.318466 68.672455 -70.581352 63.59824
-68.531021 69.504318 -24.023872 -49.533195 -58.806667 89.321037
-70.317307 64.577965 -58.783958 91.011047 -23.748466 -49.391285
730000000 -0.13715747 -17.367895 -68.623878 68.0476 -69.229637 57.903469
-68.879181 72.195663 -24.115191 -48.985001 -58.739334 88.985725
-69.270905 60.383293 -58.559322 88.67617 -23.835793 -48.741127
740000000 -0.13868558 -17.586451 -68.821022 71.744392 -70.199211 58.990479
-68.431625 69.943947 -24.206434 -48.318932 -58.609241 89.122803
-70.008575 60.127186 -58.516209 89.997314 -23.931215 -48.137375
750000000 -0.13965355 -17.826223 -68.433929 75.064896 -70.267883 64.477509
-68.382286 68.295189 -24.29755 -47.6245 -58.490334 88.707146
-70.054962 66.323578 -58.488556 89.447365 -24.031214 -47.497421
760000000 -0.1425965 -18.081526 -68.234291 69.016029 -69.7015 60.384495
-68.18531 69.561729 -24.395794 -46.932125 -58.408695 88.365631
-69.986801 65.193016 -58.257885 87.732254 -24.118725 -46.876953
770000000 -0.14306884 -18.35001 -68.229149 72.564224 -70.633369 66.827217
-68.773972 77.312759 -24.486162 -46.188194 -58.286972 88.859673
-70.183784 63.143612 -58.252335 88.415573 -24.206411 -46.311752
780000000 -0.14248265 -18.604666 -67.751846 69.702568 -69.86853 60.506222
-68.096756 71.207214 -24.582182 -45.484024 -58.092651 87.317314
-69.45295 65.214462 -58.113335 87.519608 -24.289963 -45.740761
790000000 -0.13980708 -18.865383 -68.524582 74.577255 -69.694885 70.96962
-67.7612 72.030579 -24.674641 -44.807137 -58.012596 87.768372
-69.665535 69.895927 -57.98774 88.223991 -24.367496 -45.207607
800000000 -0.13689068 -19.107588 -68.399498 70.361008 -69.658134 61.643982
-67.853355 72.061569 -24.767618 -44.191036 -57.841305 86.572685
-69.30938 63.691364 -57.776283 87.396011 -24.438375 -44.621971
810000000 -0.13407516 -19.329533 -67.8899 74.23304 -69.807022 63.825375
-67.835258 72.031113 -24.852104 -43.52095 -57.678856 87.032211
-69.68576 61.79451 -57.675888 86.607903 -24.496511 -44.03878
820000000 -0.13427721 -19.544315 -67.394577 72.364555 -69.75737 58.824245
-67.832138 72.765594 -24.929794 -42.899353 -57.720974 86.545235
-69.799698 59.937008 -57.752605 86.773521 -24.562246 -43.453266
830000000 -0.13422567 -19.766104 -67.838364 72.59816 -69.159904 63.400288
-67.662674 75.078262 -25.01449 -42.309189 -57.580624 86.386612
-69.840874 66.519142 -57.765491 86.837006 -24.616304 -42.815273
840000000 -0.1367705 -19.984957 -67.749413 73.755318 -68.936897 68.717125
-67.897682 71.793137 -25.085907 -41.675259 -57.541542 86.464859
-69.316109 67.143593 -57.661686 86.660652 -24.67528 -42.161537
850000000 -0.13682388 -20.212212 -67.445961 73.224762 -69.032364 63.779858
-67.867378 75.159149 -25.157145 -41.00473 -57.324501 86.24012
-69.395874 66.026207 -57.420242 86.476395 -24.740076 -41.459862
860000000 -0.13868396 -20.45648 -67.121452 74.121986 -69.698349 64.701027
-67.742096 69.945465 -25.231979 -40.31171 -57.385296 85.528419
-69.646103 65.172859 -57.385757 85.858192 -24.791798 -40.760139
870000000 -0.13540487 -20.713379 -67.60067 75.258232 -68.520668 64.195641
-67.358025 71.995705 -25.301691 -39.656574 -57.307564 85.985916
-68.804413 64.763206 -57.207428 85.63797 -24.861574 -40.140846
880000000 -0.134146 -20.979128 -67.673691 71.048462 -68.997963 64.503532
-67.561745 73.120766 -25.375242 -38.957199 -57.218288 86.118134
-68.809891 61.17411 -57.181816 85.037437 -24.918724 -39.488743
890000000 -0.13370687 -21.236034 -67.806412 75.229866 -68.81739 60.723331
-67.803535 71.386757 -25.446571 -38.337105 -57.123631 85.067444
-69.050774 58.491631 -57.017479 85.584007 -24.984301 -38.862041
900000000 -0.13269064 -21.480673 -67.622978 74.046127 -69.360588 62.563538
-67.49382 72.851669 -25.510635 -37.694 -57.053158 84.766998
-69.599228 63.274738 -56.923969 85.220833 -25.03957 -38.24049
910000000 -0.13232338 -21.714949 -67.567787 77.944847 -69.430206 67.854744
-67.966667 74.290825 -25.565664 -37.081478 -56.901993 84.339981
-69.417999 65.253105 -57.045185 84.98542 -25.084211 -37.627514
920000000 -0.13074678 -21.937788 -67.499062 76.423859 -69.751984 68.868538
-67.707626 75.597305 -25.613695 -36.458866 -56.917633 84.29052
-69.188652 67.565567 -56.819839 84.241661 -25.130369 -37.015308
930000000 -0.13265881 -22.155502 -67.435257 77.41835 -69.553314 70.029892
-67.021156 78.240997 -25.657452 -35.807785 -56.793343 84.740051
-69.439377 68.41246 -56.96933 85.197067 -25.176092 -36.385517
940000000 -0.13316537 -22.383785 -67.188126 76.62088 -70.079773 74.13559
-67.1166 80.740585 -25.700666 -35.09903 -56.81665 84.081985
-70.385597 75.643723 -56.859081 83.908638 -25.206213 -35.74633
950000000 -0.13596588 -22.62356 -67.015755 79.89579 -69.952606 79.362793
