! Device:	HMC349ALP4CE								
! Description:	SOI MMIC SPDT Non-Reflective Switch
! Package:	LP4CE 16 pin 4x4 mm QFN Plastic Package								
! Frequency:	DC -  4 GHz								
!								
! Ports:								
! RFC = Port 1								
! RF1 = Port 2								
! RF2 = Port 3								
!								
! State: RF2 Selected								
!								
! Supply Voltage:								
! Vdd = +5 V								
!								
! Control Voltages: 																
! Vctl  = 0 V
! EN  = 0 V
!
! Data:	Data was collected using a calibrated network analyzer with AFR software.
!	Fixtures were calculated using AFR and fixturing was applied to collect 
!	this Deembedded  S Parameter data of HMC349ALP4CE.
!
! Note:	Analog Devices supplies this data as a sample of measured data at the package pin
!	for this product.  Your particular data for this product may vary.
!	Data was taken at 25 degrees C.
!	Analog Devices reserves the right to change this data at anytime.								
!
# Hz S  dB   R 50
10000000 -21.216606 -0.32656312 -83.00206 -2.6914587 -0.83339298 -0.42783338
-72.315735 86.420967 -0.30472082 -11.864807 -68.963776 44.629112
-0.83765101 -0.40608129 -80.108162 38.604218 -21.368238 -0.95910704
20000000 -21.365522 -2.200166 -72.958092 35.492092 -0.84319192 -0.75107795
-70.93071 46.622448 -0.85990703 -22.412041 -69.250229 38.023674
-0.84197468 -0.74519062 -71.151871 44.263123 -21.431211 -1.8322809
30000000 -21.496021 -2.5789466 -67.417702 19.59474 -0.85473162 -1.0330051
-68.441864 18.814238 -1.6349349 -31.403811 -69.860741 26.809427
-0.85635102 -1.0429614 -69.594688 15.957552 -21.547373 -2.7169158
40000000 -21.657368 -2.768132 -68.244003 11.010936 -0.8670311 -1.2630104
-67.294479 4.1049986 -2.5203302 -38.692963 -69.865685 2.932143
-0.86810768 -1.2774136 -70.710342 9.0141344 -21.667429 -2.7090621
50000000 -21.722208 -2.9151518 -69.454353 -16.2756 -0.87312055 -1.5178534
-68.7136 -7.9207568 -3.4349406 -44.646591 -70.156067 -3.8496401
-0.87387294 -1.5118916 -69.966789 -21.533331 -21.720322 -2.7087874
60000000 -21.76219 -3.1504679 -68.498337 -22.644995 -0.87983954 -1.7722895
-69.379372 -37.149776 -4.3427601 -49.395645 -70.471375 -27.744535
-0.88005781 -1.7940553 -69.499397 -25.688032 -21.823486 -2.5376973
70000000 -21.78994 -3.1414905 -69.83577 -43.088295 -0.88655263 -2.0205886
-69.29837 -38.409019 -5.217679 -53.171806 -74.263069 -33.031715
-0.88606822 -2.0276928 -73.529648 -12.630475 -21.862316 -2.5788286
80000000 -21.837147 -3.1003098 -72.072777 -29.538649 -0.89229697 -2.2597284
-69.174103 -29.542034 -6.0463133 -56.228958 -72.806282 -30.110397
-0.89104176 -2.2610924 -73.863029 -20.228533 -21.871132 -2.6963248
90000000 -21.882797 -3.1333358 -71.863892 -35.333595 -0.89600086 -2.5035982
-71.984688 -26.666996 -6.8273249 -58.719826 -77.406029 -23.843828
-0.89586562 -2.5089145 -76.945007 -27.75717 -21.897053 -2.5925283
100000000 -21.914196 -2.982636 -73.792503 -45.023552 -0.89850461 -2.7427185
-73.247978 -44.267483 -7.5625758 -60.737942 -77.80481 -21.221731
-0.89655316 -2.7467048 -78.523071 -36.252083 -21.924355 -2.4797881
110000000 -21.943199 -2.861871 -73.617592 -41.300983 -0.90115148 -2.9850442
-72.396843 -32.600796 -8.2496614 -62.397617 -78.745071 -41.873077
-0.89967662 -2.9866982 -79.404213 -16.746744 -21.94837 -2.3656683
120000000 -21.973106 -2.7615983 -75.669968 -40.136234 -0.90427589 -3.2257755
-75.235153 -42.90493 -8.8973417 -63.754715 -81.378555 1.1456847
-0.90277088 -3.2272372 -79.371552 -0.52792221 -21.967119 -2.3278291
130000000 -22.002079 -2.6660473 -77.305374 -43.911068 -0.90679914 -3.4593065
-77.219803 -47.029839 -9.5047379 -64.842667 -81.662468 -16.478479
-0.90592176 -3.4613793 -82.19397 11.187195 -21.992382 -2.3968763
140000000 -22.048143 -2.7575781 -77.605492 -24.828737 -0.90902358 -3.7032065
-78.142662 -49.210686 -10.079386 -65.732117 -82.939995 15.832804
-0.90847993 -3.7116973 -83.927628 29.730192 -22.015865 -2.4177132
150000000 -22.102661 -2.8495963 -76.879013 -23.873703 -0.912673 -3.9471493
-76.434593 -38.440758 -10.625747 -66.452873 -84.0187 14.903205
-0.91169125 -3.9554188 -83.230637 29.044847 -22.046703 -2.4671402
160000000 -22.122814 -2.9262483 -76.650856 -29.099546 -0.91333187 -4.1834183
-80.48941 -46.463264 -11.147645 -67.034149 -80.356125 30.398144
-0.91242528 -4.1869621 -82.371147 10.328364 -22.044386 -2.4700022
170000000 -22.142962 -3.1129639 -80.080391 -37.948021 -0.91486955 -4.4236403
-81.692154 -42.916225 -11.645851 -67.508614 -82.666687 26.317989
-0.91519165 -4.4361053 -81.090897 29.000919 -22.045504 -2.5574963
180000000 -22.139105 -3.3237185 -82.44809 6.5976248 -0.91532999 -4.6705213
-82.506371 -8.7642946 -12.122599 -67.903282 -81.760002 56.339424
-0.91512883 -4.6819992 -77.822235 14.213526 -22.051548 -2.7581637
190000000 -22.150446 -3.4341104 -81.833672 11.421805 -0.91548818 -4.9186735
-79.984375 -23.772896 -12.579367 -68.236893 -82.094353 67.02829
-0.91539472 -4.9213691 -77.121651 62.480148 -22.044573 -2.6998267
200000000 -22.139078 -3.5872474 -80.234283 -27.401819 -0.91853362 -5.1597962
-77.579132 -39.260826 -13.013868 -68.515846 -78.842079 76.276688
-0.91721117 -5.1618195 -79.033264 41.462208 -22.053896 -2.6765919
210000000 -22.124704 -3.5692649 -78.928947 2.081305 -0.91811371 -5.4090133
-83.922737 -16.332985 -13.42539 -68.747536 -84.633987 64.201324
-0.91773695 -5.4139967 -78.295486 54.711262 -22.046896 -2.7555683
220000000 -22.122353 -3.5172982 -81.05162 20.932552 -0.91956264 -5.657939
-81.581032 -11.75059 -13.818432 -68.943474 -77.013077 75.784164
-0.91904557 -5.6559386 -79.342827 54.568184 -22.057001 -2.7987871
230000000 -22.106556 -3.5592296 -81.849174 -7.4732509 -0.92036206 -5.8989072
-79.267975 18.647533 -14.189017 -69.050163 -77.285324 64.402008
-0.91859144 -5.9085474 -77.932442 78.961647 -22.069548 -2.7180254
240000000 -22.121361 -3.3925042 -83.826546 -20.310024 -0.92359811 -6.1375246
-85.444542 -16.13018 -14.54692 -69.064728 -79.168266 70.099197
-0.92099977 -6.1383886 -77.40667 78.2258 -22.092812 -2.7407105
250000000 -22.121984 -3.3963609 -81.215439 35.775936 -0.92326409 -6.376781
-80.249641 27.359789 -14.891047 -69.035011 -77.227463 73.62809
-0.92354667 -6.3837981 -79.845085 58.342827 -22.101906 -2.7350135
260000000 -22.120193 -3.3501248 -84.229713 2.630363 -0.92615294 -6.6222935
-79.725182 -4.4187975 -15.234905 -68.943985 -74.194534 70.04512
-0.92477798 -6.626193 -74.350151 86.289337 -22.086203 -2.84991
270000000 -22.136312 -3.2827671 -83.590424 9.665884 -0.92462248 -6.8650966
-89.388092 -15.080281 -15.566736 -68.852333 -75.073982 77.664223
-0.92290163 -6.8671002 -74.493454 81.90509 -22.064402 -2.7656496
280000000 -22.101025 -3.4030361 -85.024887 39.523849 -0.92583913 -7.0956688
-77.409508 -13.066955 -15.88831 -68.705772 -74.186829 82.05526
-0.92234904 -7.1076937 -73.207146 94.234192 -22.080244 -2.8406792
290000000 -22.079117 -3.561789 -81.797966 10.132501 -0.92449987 -7.3559575
-78.746056 26.194391 -16.207102 -68.626129 -75.125275 74.589516
-0.9248153 -7.3660603 -77.474274 86.905983 -22.043966 -2.9286938
300000000 -22.072968 -3.6926491 -94.978737 9.2200212 -0.92640281 -7.6015139
-84.520271 5.8883595 -16.509642 -68.544357 -75.147995 86.090881
-0.92663831 -7.6042066 -73.191116 79.391914 -22.04394 -2.967284
310000000 -22.073208 -3.6821725 -84.368942 56.186596 -0.92740279 -7.8450298
-82.821693 31.222277 -16.796856 -68.424095 -74.183495 95.338654
-0.92662627 -7.8534174 -72.048607 71.546753 -22.046303 -3.1666508
320000000 -22.076546 -3.6582015 -84.979073 11.542407 -0.92909527 -8.0901232
-81.424629 36.887905 -17.07287 -68.288139 -73.676514 85.738609
-0.92604476 -8.103899 -72.711891 87.38443 -22.024664 -3.1182942
330000000 -22.096714 -3.6216528 -82.253288 -1.8269795 -0.92916846 -8.3415194
-84.142143 53.300133 -17.325773 -68.132202 -74.491348 72.020149
-0.92898828 -8.3504343 -72.252373 82.487305 -22.056747 -3.0688515
340000000 -22.109941 -3.4892421 -80.57338 46.034111 -0.92974675 -8.5831718
-84.822884 38.609154 -17.575819 -67.860222 -72.454887 89.151382
-0.92982018 -8.5800381 -72.637222 80.884552 -22.046141 -3.1213992
350000000 -22.112669 -3.4947884 -81.379433 79.41787 -0.93089181 -8.8195772
-84.569954 48.530182 -17.822388 -67.588577 -72.753273 76.880859
-0.92994791 -8.8300486 -72.891296 89.217026 -22.045383 -3.0361099
360000000 -22.139671 -3.5414345 -80.531937 34.701473 -0.92930913 -9.0693665
-82.786682 40.460045 -18.062696 -67.187019 -71.731018 84.507233
-0.93090039 -9.0728159 -72.65551 93.444283 -22.059177 -3.0636616
370000000 -22.129839 -3.6427624 -83.83075 48.104176 -0.93214911 -9.3154869
-80.692032 59.235863 -18.314579 -66.790504 -72.443703 83.995216
-0.93135893 -9.3241482 -71.765717 84.991425 -22.057161 -3.2544508
380000000 -22.122683 -3.8730631 -78.867302 55.782837 -0.93425769 -9.5546694
-79.778519 23.340385 -18.563526 -66.461868 -72.447517 74.964012
-0.93283635 -9.5604277 -72.735298 91.671043 -22.058496 -3.2581313
390000000 -22.107758 -4.0170274 -79.904732 51.910706 -0.93309081 -9.8034487
-80.292946 56.528358 -18.804041 -66.154167 -71.863258 88.065529
-0.93262237 -9.7986183 -71.325554 84.557938 -22.068609 -3.3960044
400000000 -22.113134 -4.1931787 -77.356133 37.443821 -0.93362355 -10.042481
-80.085426 49.552929 -19.043633 -65.849464 -71.436195 89.741585
-0.93335938 -10.051446 -71.558189 85.640091 -22.05859 -3.4973679
410000000 -22.106552 -4.3243632 -77.618546 52.374855 -0.93433893 -10.292578
-79.869286 46.747593 -19.262665 -65.585556 -73.194534 86.560982
-0.93638682 -10.295992 -71.040298 88.066681 -22.063974 -3.5110221
420000000 -22.079063 -4.3602805 -80.228943 52.31424 -0.9335404 -10.535007
-81.293465 47.83987 -19.474215 -65.333382 -70.977669 87.088852
-0.93599951 -10.53993 -71.4039 75.461731 -22.06753 -3.6586993
430000000 -22.068411 -4.5067101 -80.382477 62.407459 -0.93481702 -10.7805
-79.646706 52.192101 -19.668329 -64.990982 -71.319008 86.202263
-0.93590397 -10.790971 -71.462524 82.136703 -22.060213 -3.6485407
440000000 -22.050161 -4.4767957 -78.715485 55.855278 -0.93525928 -11.026617
-78.978996 37.415028 -19.85302 -64.629494 -70.680313 86.616089
-0.93710768 -11.029733 -71.003967 86.231499 -22.059172 -3.6104717
450000000 -22.064222 -4.5055246 -79.795738 58.35677 -0.93636411 -11.271657
-80.31543 39.92329 -20.032722 -64.184471 -71.429131 82.18528
-0.93807048 -11.283452 -69.804962 90.10173 -22.049133 -3.5997231
460000000 -22.054213 -4.5992532 -79.150223 58.366459 -0.93740809 -11.515223
-80.212738 56.765293 -20.224024 -63.652542 -70.344948 92.012154
-0.93976432 -11.523515 -70.194618 94.12252 -22.055653 -3.6078019
470000000 -22.060667 -4.6347628 -77.912766 48.5093 -0.9360745 -11.761508
-76.773697 62.590385 -20.420433 -63.134567 -70.176453 90.87365
-0.93770981 -11.774356 -70.362068 88.591591 -22.039383 -3.7198825
480000000 -22.062687 -4.6663918 -78.13015 64.701569 -0.93791723 -12.00507
-76.83432 62.273151 -20.621033 -62.622993 -69.445526 87.583206
-0.93859327 -12.016158 -70.37928 95.841774 -22.007463 -3.9007373
490000000 -22.049126 -4.904305 -78.506989 67.834465 -0.93819249 -12.252786
-78.133507 53.753441 -20.823929 -62.219254 -69.901825 87.79834
-0.94119483 -12.262125 -69.990891 94.253342 -21.995356 -4.0584483
500000000 -22.039219 -5.0677691 -78.324669 58.258904 -0.93975985 -12.500516
-77.715141 65.917931 -21.017454 -61.821861 -69.233688 90.259583
-0.94116116 -12.506576 -69.584877 91.637146 -21.969305 -4.2675357
510000000 -22.054857 -5.2336144 -77.64817 45.700661 -0.94019687 -12.74907
-81.417938 40.976646 -21.200962 -61.497726 -68.782211 90.15638
-0.94120234 -12.751592 -68.985374 94.587135 -21.925108 -4.3607659
520000000 -22.040092 -5.3118849 -78.198509 70.143845 -0.94155258 -12.992522
-76.760666 66.271599 -21.361961 -61.177048 -69.198799 96.81498
-0.94193876 -12.996263 -68.796661 97.383888 -21.922817 -4.458807
530000000 -22.045864 -5.2334723 -76.36805 65.89492 -0.94160485 -13.236206
-77.787399 56.593529 -21.515583 -60.76992 -69.241272 93.927757
-0.94323605 -13.246799 -68.726189 92.059639 -21.935637 -4.4698081
540000000 -22.053251 -5.336935 -79.870255 62.184742 -0.94361067 -13.478518
-77.098259 60.438591 -21.656193 -60.331055 -69.094757 92.209671
-0.94400138 -13.491982 -69.261208 94.22509 -21.894135 -4.4491696
550000000 -22.026703 -5.3515792 -77.917603 57.7742 -0.94341862 -13.723336
-77.238411 41.658539 -21.799145 -59.801682 -67.974304 92.94651
-0.94260252 -13.737364 -68.981209 97.62014 -21.910366 -4.441484
560000000 -22.047323 -5.3513236 -76.986542 67.332222 -0.94440466 -13.967372
-77.389427 49.828568 -21.945843 -59.201992 -69.623444 95.356026
-0.94479805 -13.979695 -67.946068 97.421867 -21.894081 -4.4052696
570000000 -22.041025 -5.4789081 -76.12252 60.309471 -0.94332576 -14.215591
-76.988968 64.759026 -22.098063 -58.546455 -69.477348 96.203766
-0.94394255 -14.227308 -67.919945 94.684555 -21.918821 -4.4555888
580000000 -22.044725 -5.6129661 -77.828148 58.283173 -0.94321138 -14.463097
-75.745087 62.023109 -22.258776 -57.982254 -68.742638 92.737579
-0.94579667 -14.469879 -68.119728 101.73884 -21.892195 -4.550766
590000000 -22.014128 -5.7539673 -75.623772 53.971558 -0.94462419 -14.709135
-77.432953 59.294785 -22.422211 -57.518528 -68.188835 98.511543
-0.94442379 -14.715507 -67.973412 98.974991 -21.878725 -4.8649101
600000000 -22.013445 -6.026536 -77.413879 68.889984 -0.9449935 -14.957961
-76.500801 66.862534 -22.579336 -57.063 -68.404327 99.155197
-0.94419372 -14.964651 -68.125511 95.186821 -21.860949 -5.0153184
610000000 -21.985573 -6.1985345 -76.296036 74.278885 -0.94497752 -15.199167
-76.805176 55.323463 -22.723114 -56.591572 -67.685616 99.581886
-0.94500369 -15.207825 -67.56855 97.731133 -21.854647 -5.2079577
620000000 -21.989378 -6.3401241 -74.787193 68.582619 -0.94625205 -15.45058
-76.676186 64.503525 -22.858185 -56.179195 -67.781662 102.26569
-0.94856381 -15.468625 -67.56636 100.78053 -21.824902 -5.2802129
630000000 -21.990311 -6.4182372 -75.41523 71.709991 -0.947478 -15.693464
-74.710022 58.740528 -22.966341 -55.657936 -67.773758 99.81826
-0.94827509 -15.712127 -67.640015 93.872337 -21.809677 -5.3386784
640000000 -21.997456 -6.4374971 -75.576981 69.120743 -0.94834936 -15.951484
-73.787621 71.289528 -23.070852 -55.067348 -67.756546 100.23917
-0.94702351 -15.959183 -67.819504 100.03943 -21.792559 -5.363987
650000000 -22.025251 -6.4152403 -74.964668 66.45697 -0.95063055 -16.191114
-74.421341 63.825714 -23.186699 -54.398674 -67.264847 99.904205
-0.94914311 -16.199791 -67.499817 98.150986 -21.760441 -5.4173269
660000000 -22.037159 -6.4934449 -75.918808 61.141613 -0.94973511 -16.435692
-75.263786 63.046822 -23.303976 -53.653465 -67.176704 100.99445
-0.95028901 -16.443892 -66.999229 102.70427 -21.77795 -5.332428
670000000 -22.062006 -6.5808363 -73.561707 71.568977 -0.95044446 -16.678223
-75.547615 66.38047 -23.430183 -52.917076 -66.852089 100.75251
-0.95240343 -16.692085 -67.060555 102.01157 -21.76668 -5.3365598
680000000 -22.064531 -6.562048 -73.18338 73.881287 -0.95104778 -16.92148
-73.266998 77.854118 -23.568729 -52.19746 -67.203522 99.612022
-0.95190036 -16.932566 -66.962074 101.63683 -21.761686 -5.449573
690000000 -22.053526 -6.785676 -74.319397 71.41703 -0.95015603 -17.17268
-74.554123 68.411285 -23.706776 -51.659058 -66.852531 100.02205
-0.9520753 -17.175772 -66.671021 100.18903 -21.739714 -5.584146
700000000 -22.044966 -6.9217968 -73.917244 65.913406 -0.95189422 -17.411209
-73.997711 64.135269 -23.838057 -51.1432 -66.681488 100.8971
-0.9520967 -17.420204 -66.734665 105.67827 -21.749504 -5.6839418
710000000 -22.024485 -7.0167727 -74.598869 71.890518 -0.95213747 -17.656778
-74.307343 72.060104 -23.953001 -50.694572 -66.342728 103.41663
-0.95382482 -17.668425 -66.221184 102.66257 -21.751488 -5.7828879
720000000 -22.014532 -7.1676526 -73.518707 70.534897 -0.95236856 -17.903597
-73.127182 73.242561 -24.059088 -50.255314 -66.27002 102.19909
-0.9533307 -17.913837 -66.895317 105.34359 -21.743317 -5.8380566
730000000 -21.997671 -7.1935153 -73.49472 67.897644 -0.95309138 -18.149437
-73.868401 66.03405 -24.127531 -49.794117 -66.029961 104.73955
-0.95369768 -18.16202 -66.022644 104.31004 -21.714411 -5.7293196
740000000 -22.002693 -7.1624961 -73.548508 67.396408 -0.95415735 -18.393473
-73.74263 68.443314 -24.194818 -49.18882 -66.118042 106.13584
-0.95414662 -18.406738 -66.111343 105.52874 -21.707573 -5.7979226
750000000 -22.007153 -7.1921439 -73.091263 70.478195 -0.95407993 -18.646303
-73.742493 63.8204 -24.267048 -48.441029 -65.783531 106.95251
-0.95512515 -18.653564 -66.380852 106.59859 -21.705742 -5.7776041
760000000 -21.990496 -7.2891831 -73.289116 67.624207 -0.95296317 -18.889328
-72.723671 63.836002 -24.351391 -47.599781 -65.701141 108.13284
-0.95825559 -18.905575 -65.572144 108.88142 -21.700178 -5.8520012
770000000 -21.99605 -7.4423699 -73.728607 64.443237 -0.95438397 -19.1432
-72.99559 64.445213 -24.450535 -46.774048 -65.612694 109.71423
-0.95626229 -19.160137 -65.596878 108.08453 -21.689112 -5.9797258
780000000 -22.001825 -7.6838698 -72.65799 64.800888 -0.956617 -19.391008
-71.971825 65.77063 -24.564617 -46.004307 -65.555984 108.86289
-0.95754707 -19.411503 -65.616997 110.74236 -21.668627 -6.0875759
790000000 -21.995308 -7.8547029 -71.92852 63.918762 -0.95644003 -19.641466
-72.146591 63.295929 -24.676027 -45.330513 -65.294205 108.54259
-0.95859855 -19.653877 -65.181435 111.04077 -21.67429 -6.3619094
800000000 -21.975794 -8.0818253 -73.027313 64.820503 -0.95468426 -19.890934
-72.126373 61.899117 -24.791307 -44.784374 -65.150841 113.14505
-0.95841289 -19.904858 -65.015747 111.34884 -21.659637 -6.489809
810000000 -21.975557 -8.312952 -72.155617 60.841202 -0.95623052 -20.13455
-72.236038 62.769157 -24.878172 -44.330589 -64.887939 110.18724
-0.95697427 -20.149775 -65.189667 111.98239 -21.635664 -6.6311483
820000000 -21.946093 -8.375824 -72.823471 63.29298 -0.95830691 -20.380846
-72.265495 61.646576 -24.955402 -43.890907 -64.843048 113.60312
-0.96023905 -20.395706 -64.977615 112.90316 -21.618099 -6.6626534
830000000 -21.950182 -8.3955622 -71.615891 62.81654 -0.95893925 -20.622244
-70.99202 60.249352 -25.01737 -43.441868 -64.730293 113.64831
-0.96115625 -20.63784 -64.349869 112.57455 -21.603519 -6.6872659
840000000 -21.935034 -8.3472471 -71.555275 57.587681 -0.96097177 -20.864391
-71.672073 58.607914 -25.060545 -42.834816 -64.474464 114.57491
-0.96326792 -20.880844 -64.319298 112.76369 -21.593367 -6.6379089
850000000 -21.939423 -8.3267498 -70.842583 54.611671 -0.96088296 -21.111513
-71.344559 61.749359 -25.103636 -42.116882 -64.589401 116.02625
-0.96285486 -21.122963 -64.433327 115.27054 -21.561472 -6.5670056
860000000 -21.951693 -8.2222395 -71.545517 56.527267 -0.96181834 -21.356951
-71.406807 53.264782 -25.168406 -41.312916 -64.201378 117.44711
-0.96611619 -21.372089 -64.013077 116.82744 -21.521782 -6.6450882
870000000 -21.937078 -8.2251873 -71.309608 55.014519 -0.96153963 -21.607834
-71.749237 51.060989 -25.242781 -40.487514 -64.054733 118.69719
-0.96736693 -21.618332 -63.742077 118.53072 -21.495722 -6.7522593
880000000 -21.940493 -8.3088655 -71.529404 54.008968 -0.96254426 -21.857233
-71.615456 49.844906 -25.335114 -39.689503 -64.033958 119.64859
-0.96661949 -21.869751 -63.685894 120.20467 -21.473631 -6.958971
890000000 -21.917568 -8.4407053 -71.175041 43.951084 -0.96451527 -22.101925
-70.685921 49.929379 -25.430618 -39.054558 -63.58857 120.38804
-0.96767873 -22.11458 -63.556538 119.34579 -21.462423 -7.1696529
900000000 -21.927765 -8.5384569 -71.372276 43.363445 -0.96542209 -22.351246
-71.102837 45.525383 -25.519987 -38.563683 -63.16291 120.93786
-0.9705826 -22.362133 -63.131096 122.18132 -21.44351 -7.3855228
910000000 -21.909388 -8.7977715 -71.187218 42.811607 -0.96633703 -22.596859
-70.881104 41.58437 -25.58374 -38.128075 -62.815178 122.98743
-0.96964365 -22.608852 -62.643093 122.21039 -21.436054 -7.4883661
920000000 -21.902363 -8.9935284 -71.256294 36.335075 -0.96678519 -22.840816
-71.335144 42.98653 -25.623075 -37.737587 -62.714645 123.80017
-0.9717589 -22.857767 -62.725613 123.62537 -21.420862 -7.5387411
930000000 -21.892447 -9.1452417 -71.930298 39.122025 -0.96877211 -23.090734
-71.494308 41.6222 -25.641296 -37.254475 -62.262844 124.006
-0.97142988 -23.103163 -62.074459 123.46651 -21.396231 -7.5446687
