! Mini-Circuits
! S2P DATA File Format
! Type: LOW PASS FILTER
! Model: LFCG-1000+
! All S Parameters are in dB deg format
! TEST CONDITIONS: INPUT POWER = 0 dBm @ Temperature = +25deg C
# MHz S dB R 50
!Frequency        S11 dB  S11 DEG   S21 dB  S21 DEG   S12 dB  S12 DEG   S22 dB  S22 DEG
  10.0000     -3.682404E+001  5.420015E+001 -1.309540E-001 -1.665445E+000 -1.315321E-001 -1.773214E+000 -3.757190E+001  5.340971E+001
  13.0000     -3.641456E+001  3.343319E+001 -1.342718E-001 -2.053775E+000 -1.333908E-001 -2.142580E+000 -3.673598E+001  3.829576E+001
  16.0000     -3.667595E+001  2.198109E+001 -1.356562E-001 -2.481108E+000 -1.360686E-001 -2.552710E+000 -3.682048E+001  3.180526E+001
  19.0000     -3.701466E+001  1.804465E+001 -1.384757E-001 -2.940554E+000 -1.385721E-001 -3.007640E+000 -3.727559E+001  2.966193E+001
  20.0000     -3.726514E+001  1.853442E+001 -1.378077E-001 -3.096286E+000 -1.400716E-001 -3.151482E+000 -3.734161E+001  3.042029E+001
  30.0000     -3.749723E+001  3.528289E+001 -1.448670E-001 -4.588438E+000 -1.441162E-001 -4.641419E+000 -3.740489E+001  3.489984E+001
  40.0000     -3.549002E+001  4.441012E+001 -1.510284E-001 -6.078994E+000 -1.503092E-001 -6.106675E+000 -3.579576E+001  3.769220E+001
  50.0000     -3.421540E+001  4.239139E+001 -1.645380E-001 -7.506958E+000 -1.556285E-001 -7.538405E+000 -3.451406E+001  3.716008E+001
  60.0000     -3.405809E+001  4.324910E+001 -1.721840E-001 -8.976746E+000 -1.671451E-001 -9.007122E+000 -3.302136E+001  3.400750E+001
  70.0000     -3.346090E+001  4.286420E+001 -1.793063E-001 -1.042213E+001 -1.743016E-001 -1.046323E+001 -3.283345E+001  3.549031E+001
  80.0000     -3.253006E+001  4.257225E+001 -1.826169E-001 -1.189831E+001 -1.794029E-001 -1.192225E+001 -3.215191E+001  3.751176E+001
  90.0000     -3.191965E+001  4.158417E+001 -1.870439E-001 -1.334005E+001 -1.845974E-001 -1.336188E+001 -3.144054E+001  3.651592E+001
 100.0000     -3.178395E+001  4.179699E+001 -1.897894E-001 -1.477201E+001 -1.898331E-001 -1.479523E+001 -3.089395E+001  3.400662E+001
 110.0000     -3.136360E+001  4.317171E+001 -1.963396E-001 -1.623443E+001 -1.951558E-001 -1.624208E+001 -3.049266E+001  3.230374E+001
 120.0000     -3.083759E+001  4.219571E+001 -2.016138E-001 -1.766856E+001 -2.001651E-001 -1.768115E+001 -3.017694E+001  3.225610E+001
 130.0000     -3.028321E+001  4.221085E+001 -2.077502E-001 -1.912464E+001 -2.060173E-001 -1.913753E+001 -2.961907E+001  3.100358E+001
 140.0000     -3.021809E+001  4.158316E+001 -2.141954E-001 -2.058764E+001 -2.125400E-001 -2.058753E+001 -2.913124E+001  2.964082E+001
 150.0000     -3.009052E+001  4.156809E+001 -2.197820E-001 -2.203911E+001 -2.180475E-001 -2.203969E+001 -2.882517E+001  2.833748E+001
 160.0000     -2.945959E+001  4.270082E+001 -2.226307E-001 -2.346558E+001 -2.207884E-001 -2.346747E+001 -2.848004E+001  2.681675E+001
 170.0000     -2.902534E+001  4.182020E+001 -2.277757E-001 -2.491817E+001 -2.271326E-001 -2.492285E+001 -2.815533E+001  2.597561E+001
 180.0000     -2.898165E+001  4.092390E+001 -2.325090E-001 -2.636771E+001 -2.320510E-001 -2.636857E+001 -2.780772E+001  2.502889E+001
 190.0000     -2.886675E+001  4.084157E+001 -2.357304E-001 -2.781070E+001 -2.361710E-001 -2.781003E+001 -2.751491E+001  2.313047E+001
 200.0000     -2.852048E+001  4.095554E+001 -2.395962E-001 -2.926626E+001 -2.401654E-001 -2.926374E+001 -2.726249E+001  2.140186E+001
 210.0000     -2.823616E+001  3.991606E+001 -2.449296E-001 -3.070905E+001 -2.433852E-001 -3.071230E+001 -2.713246E+001  2.101926E+001
 220.0000     -2.813472E+001  4.020321E+001 -2.486450E-001 -3.216728E+001 -2.469849E-001 -3.217112E+001 -2.697787E+001  1.949188E+001
 230.0000     -2.808742E+001  4.038116E+001 -2.514969E-001 -3.362384E+001 -2.500798E-001 -3.362939E+001 -2.662102E+001  1.829601E+001
 240.0000     -2.787338E+001  3.986523E+001 -2.566261E-001 -3.508337E+001 -2.549504E-001 -3.508634E+001 -2.636280E+001  1.651224E+001
 250.0000     -2.753897E+001  4.010638E+001 -2.620262E-001 -3.654926E+001 -2.599905E-001 -3.656303E+001 -2.616904E+001  1.433527E+001
 260.0000     -2.734941E+001  4.002102E+001 -2.672435E-001 -3.802029E+001 -2.651381E-001 -3.803015E+001 -2.591983E+001  1.330058E+001
 270.0000     -2.738712E+001  3.950552E+001 -2.696815E-001 -3.948634E+001 -2.683554E-001 -3.949369E+001 -2.571877E+001  1.245714E+001
 280.0000     -2.721752E+001  3.959565E+001 -2.776755E-001 -4.095304E+001 -2.756614E-001 -4.095805E+001 -2.544732E+001  1.023390E+001
 290.0000     -2.691217E+001  3.889570E+001 -2.821515E-001 -4.243216E+001 -2.794925E-001 -4.243839E+001 -2.530325E+001  8.231215E+000
 300.0000     -2.682513E+001  3.803436E+001 -2.838985E-001 -4.391456E+001 -2.806144E-001 -4.392333E+001 -2.516751E+001  6.872766E+000
 310.0000     -2.684569E+001  3.784753E+001 -2.895698E-001 -4.539887E+001 -2.874882E-001 -4.540425E+001 -2.491024E+001  5.762744E+000
 320.0000     -2.672227E+001  3.749968E+001 -2.913634E-001 -4.689596E+001 -2.899784E-001 -4.690378E+001 -2.479272E+001  5.486269E+000
 330.0000     -2.645533E+001  3.744886E+001 -2.934683E-001 -4.837921E+001 -2.923605E-001 -4.838960E+001 -2.464820E+001  3.048065E+000
 340.0000     -2.637267E+001  3.657344E+001 -2.989242E-001 -4.986332E+001 -2.979597E-001 -4.986882E+001 -2.450164E+001  8.818812E-001
 350.0000     -2.630774E+001  3.566361E+001 -3.048541E-001 -5.135577E+001 -3.038619E-001 -5.136311E+001 -2.438442E+001 -1.856875E-001
 360.0000     -2.615393E+001  3.642538E+001 -3.064468E-001 -5.285224E+001 -3.054108E-001 -5.286254E+001 -2.420600E+001 -2.338495E+000
 370.0000     -2.610418E+001  3.592986E+001 -3.079366E-001 -5.437748E+001 -3.071251E-001 -5.438335E+001 -2.407606E+001 -3.556077E+000
 380.0000     -2.599342E+001  3.582011E+001 -3.118914E-001 -5.589949E+001 -3.104854E-001 -5.590333E+001 -2.391004E+001 -5.175195E+000
 390.0000     -2.589837E+001  3.466594E+001 -3.155379E-001 -5.741666E+001 -3.143176E-001 -5.742596E+001 -2.379915E+001 -6.408908E+000
 400.0000     -2.582306E+001  3.338544E+001 -3.208704E-001 -5.894276E+001 -3.190846E-001 -5.895046E+001 -2.370178E+001 -7.640484E+000
 410.0000     -2.576333E+001  3.344781E+001 -3.263658E-001 -6.047230E+001 -3.231702E-001 -6.048589E+001 -2.357564E+001 -9.724819E+000
 420.0000     -2.571062E+001  3.256775E+001 -3.290804E-001 -6.200928E+001 -3.274126E-001 -6.202148E+001 -2.347463E+001 -1.150808E+001
 430.0000     -2.559536E+001  3.157981E+001 -3.314388E-001 -6.354750E+001 -3.297378E-001 -6.355406E+001 -2.342933E+001 -1.291262E+001
 440.0000     -2.557220E+001  3.109026E+001 -3.352034E-001 -6.510493E+001 -3.336589E-001 -6.511076E+001 -2.335905E+001 -1.430362E+001
 450.0000     -2.558274E+001  2.992767E+001 -3.414165E-001 -6.667900E+001 -3.390716E-001 -6.668578E+001 -2.324259E+001 -1.580772E+001
 460.0000     -2.543392E+001  2.876929E+001 -3.446459E-001 -6.824229E+001 -3.430888E-001 -6.825199E+001 -2.314935E+001 -1.733095E+001
 470.0000     -2.537426E+001  2.834327E+001 -3.463424E-001 -6.980481E+001 -3.441237E-001 -6.981448E+001 -2.320702E+001 -1.906280E+001
 480.0000     -2.539398E+001  2.769753E+001 -3.523644E-001 -7.137473E+001 -3.498297E-001 -7.138294E+001 -2.324613E+001 -2.118865E+001
 490.0000     -2.545107E+001  2.696391E+001 -3.583195E-001 -7.295379E+001 -3.557872E-001 -7.296372E+001 -2.317760E+001 -2.262706E+001
 500.0000     -2.540359E+001  2.606539E+001 -3.616603E-001 -7.455264E+001 -3.595822E-001 -7.456712E+001 -2.311588E+001 -2.383342E+001
 510.0000     -2.522328E+001  2.497049E+001 -3.666921E-001 -7.615910E+001 -3.660122E-001 -7.617878E+001 -2.310247E+001 -2.615387E+001
 520.0000     -2.531290E+001  2.390537E+001 -3.690305E-001 -7.777446E+001 -3.691672E-001 -7.778472E+001 -2.299486E+001 -2.719228E+001
 530.0000     -2.539012E+001  2.304457E+001 -3.714518E-001 -7.938873E+001 -3.712965E-001 -7.939597E+001 -2.304859E+001 -2.893905E+001
 540.0000     -2.532416E+001  2.185085E+001 -3.780386E-001 -8.103065E+001 -3.772377E-001 -8.102991E+001 -2.308652E+001 -3.068554E+001
 550.0000     -2.528659E+001  2.046832E+001 -3.865676E-001 -8.267462E+001 -3.845465E-001 -8.267677E+001 -2.305910E+001 -3.207777E+001
 560.0000     -2.538717E+001  1.932957E+001 -3.904856E-001 -8.431520E+001 -3.879683E-001 -8.432666E+001 -2.311046E+001 -3.388811E+001
 570.0000     -2.534408E+001  1.843796E+001 -3.923020E-001 -8.597995E+001 -3.903050E-001 -8.599413E+001 -2.316675E+001 -3.512472E+001
 580.0000     -2.552153E+001  1.688074E+001 -3.957213E-001 -8.762933E+001 -3.937926E-001 -8.764609E+001 -2.317453E+001 -3.666343E+001
 590.0000     -2.568426E+001  1.554905E+001 -3.991296E-001 -8.930511E+001 -3.970205E-001 -8.932210E+001 -2.326320E+001 -3.790850E+001
 600.0000     -2.575602E+001  1.445217E+001 -4.027961E-001 -9.100685E+001 -4.021343E-001 -9.102725E+001 -2.336908E+001 -3.927252E+001
 610.0000     -2.592730E+001  1.294626E+001 -4.102411E-001 -9.270255E+001 -4.100735E-001 -9.272873E+001 -2.343010E+001 -4.099627E+001
 620.0000     -2.596676E+001  1.088556E+001 -4.139248E-001 -9.440397E+001 -4.145483E-001 -9.443456E+001 -2.356860E+001 -4.241611E+001
 630.0000     -2.603328E+001  9.023047E+000 -4.194602E-001 -9.612757E+001 -4.194798E-001 -9.615341E+001 -2.374046E+001 -4.399079E+001
 640.0000     -2.624359E+001  7.469717E+000 -4.248915E-001 -9.787114E+001 -4.249085E-001 -9.789193E+001 -2.386406E+001 -4.555661E+001
 650.0000     -2.648883E+001  6.235406E+000 -4.287295E-001 -9.962156E+001 -4.290838E-001 -9.964198E+001 -2.401850E+001 -4.676737E+001
 660.0000     -2.665391E+001  4.896065E+000 -4.330125E-001 -1.013821E+002 -4.339202E-001 -1.013966E+002 -2.425144E+001 -4.800215E+001
 670.0000     -2.684756E+001  2.691784E+000 -4.401197E-001 -1.031655E+002 -4.403647E-001 -1.031803E+002 -2.438676E+001 -4.917150E+001
 680.0000     -2.706466E+001  4.279956E-001 -4.440460E-001 -1.049514E+002 -4.439404E-001 -1.049664E+002 -2.462762E+001 -5.023338E+001
 690.0000     -2.729630E+001 -1.589944E+000 -4.495786E-001 -1.067558E+002 -4.501198E-001 -1.067706E+002 -2.488109E+001 -5.113064E+001
 700.0000     -2.761010E+001 -4.208288E+000 -4.575977E-001 -1.085771E+002 -4.581679E-001 -1.085853E+002 -2.512634E+001 -5.189424E+001
 710.0000     -2.801715E+001 -6.883217E+000 -4.609615E-001 -1.104028E+002 -4.618980E-001 -1.104117E+002 -2.541862E+001 -5.248733E+001
 720.0000     -2.837361E+001 -9.190753E+000 -4.655485E-001 -1.122634E+002 -4.660624E-001 -1.122712E+002 -2.567001E+001 -5.349834E+001
 730.0000     -2.870915E+001 -1.236420E+001 -4.750226E-001 -1.141309E+002 -4.756155E-001 -1.141405E+002 -2.605828E+001 -5.464458E+001
 740.0000     -2.913754E+001 -1.498444E+001 -4.807262E-001 -1.160041E+002 -4.817684E-001 -1.160132E+002 -2.646675E+001 -5.581768E+001
 750.0000     -2.960143E+001 -1.794951E+001 -4.834317E-001 -1.178930E+002 -4.839464E-001 -1.179056E+002 -2.689894E+001 -5.543452E+001
 760.0000     -3.001562E+001 -2.246277E+001 -4.910213E-001 -1.198169E+002 -4.905599E-001 -1.198260E+002 -2.740840E+001 -5.364169E+001
 770.0000     -3.054896E+001 -2.608069E+001 -4.996662E-001 -1.217435E+002 -5.001399E-001 -1.217569E+002 -2.774621E+001 -5.395289E+001
 780.0000     -3.087268E+001 -3.009178E+001 -5.054402E-001 -1.236852E+002 -5.051589E-001 -1.236960E+002 -2.820433E+001 -5.353437E+001
 790.0000     -3.139861E+001 -3.531075E+001 -5.082706E-001 -1.256601E+002 -5.091634E-001 -1.256694E+002 -2.862690E+001 -5.155972E+001
 800.0000     -3.217023E+001 -4.141359E+001 -5.168487E-001 -1.276558E+002 -5.165632E-001 -1.276676E+002 -2.905448E+001 -4.965643E+001
 810.0000     -3.276157E+001 -4.831581E+001 -5.268057E-001 -1.296698E+002 -5.264595E-001 -1.296827E+002 -2.967706E+001 -4.768159E+001
 820.0000     -3.315835E+001 -5.522164E+001 -5.323499E-001 -1.316959E+002 -5.327355E-001 -1.317085E+002 -3.031119E+001 -4.298854E+001
 830.0000     -3.375266E+001 -6.373380E+001 -5.434512E-001 -1.337626E+002 -5.442480E-001 -1.337742E+002 -3.060746E+001 -4.015062E+001
 840.0000     -3.420263E+001 -7.371286E+001 -5.526728E-001 -1.358274E+002 -5.521193E-001 -1.358415E+002 -3.096611E+001 -3.578703E+001
 850.0000     -3.447398E+001 -8.423176E+001 -5.592143E-001 -1.379046E+002 -5.590388E-001 -1.379206E+002 -3.121040E+001 -2.881450E+001
 860.0000     -3.462078E+001 -9.554062E+001 -5.700632E-001 -1.400458E+002 -5.689657E-001 -1.400647E+002 -3.117844E+001 -2.385789E+001
 870.0000     -3.420893E+001 -1.066843E+002 -5.766335E-001 -1.421938E+002 -5.765821E-001 -1.422134E+002 -3.122195E+001 -1.853397E+001
 880.0000     -3.390485E+001 -1.176377E+002 -5.881299E-001 -1.443598E+002 -5.880461E-001 -1.443733E+002 -3.113990E+001 -1.283957E+001
 890.0000     -3.330960E+001 -1.283567E+002 -5.986713E-001 -1.465526E+002 -5.980456E-001 -1.465657E+002 -3.056715E+001 -7.924184E+000
 900.0000     -3.237140E+001 -1.363015E+002 -6.076674E-001 -1.487737E+002 -6.068969E-001 -1.487840E+002 -2.976458E+001 -3.327515E+000
 905.0000     -3.195339E+001 -1.394507E+002 -6.130248E-001 -1.498837E+002 -6.130782E-001 -1.498946E+002 -2.938784E+001 -6.277175E-001
 910.0000     -3.152980E+001 -1.427777E+002 -6.200041E-001 -1.510058E+002 -6.189942E-001 -1.510194E+002 -2.904230E+001  1.550791E+000
 915.0000     -3.116878E+001 -1.465432E+002 -6.257927E-001 -1.521414E+002 -6.255504E-001 -1.521568E+002 -2.875606E+001  2.800372E+000
 920.0000     -3.079295E+001 -1.504411E+002 -6.323207E-001 -1.532892E+002 -6.322570E-001 -1.533014E+002 -2.850219E+001  3.544541E+000
 925.0000     -3.040108E+001 -1.540343E+002 -6.385924E-001 -1.544386E+002 -6.383389E-001 -1.544516E+002 -2.824482E+001  4.176930E+000
 930.0000     -2.997881E+001 -1.571756E+002 -6.450396E-001 -1.555928E+002 -6.439698E-001 -1.556040E+002 -2.794281E+001  5.005058E+000
 935.0000     -2.954176E+001 -1.598382E+002 -6.510110E-001 -1.567549E+002 -6.509491E-001 -1.567666E+002 -2.765405E+001  6.022819E+000
 940.0000     -2.912025E+001 -1.622808E+002 -6.582700E-001 -1.579269E+002 -6.576338E-001 -1.579419E+002 -2.732804E+001  7.106865E+000
 945.0000     -2.874402E+001 -1.648228E+002 -6.648899E-001 -1.591055E+002 -6.648957E-001 -1.591231E+002 -2.697671E+001  8.102498E+000
 950.0000     -2.840748E+001 -1.672893E+002 -6.725010E-001 -1.602936E+002 -6.712068E-001 -1.603100E+002 -2.659471E+001  8.517553E+000
 955.0000     -2.812250E+001 -1.697313E+002 -6.796194E-001 -1.614819E+002 -6.783344E-001 -1.615013E+002 -2.621094E+001  8.735868E+000
 960.0000     -2.781188E+001 -1.720111E+002 -6.857462E-001 -1.626774E+002 -6.847457E-001 -1.627015E+002 -2.584090E+001  8.686352E+000
 965.0000     -2.749117E+001 -1.740991E+002 -6.915159E-001 -1.638877E+002 -6.905007E-001 -1.639073E+002 -2.550770E+001  8.834729E+000
 970.0000     -2.719384E+001 -1.760421E+002 -6.974190E-001 -1.651010E+002 -6.965075E-001 -1.651267E+002 -2.521380E+001  8.921803E+000
 975.0000     -2.692400E+001 -1.776183E+002 -7.042448E-001 -1.663293E+002 -7.030742E-001 -1.663589E+002 -2.495955E+001  8.957721E+000
 980.0000     -2.667779E+001 -1.793235E+002 -7.106631E-001 -1.675706E+002 -7.104605E-001 -1.675955E+002 -2.474438E+001  8.977958E+000
 985.0000     -2.641238E+001  1.787919E+002 -7.181633E-001 -1.688148E+002 -7.181911E-001 -1.688374E+002 -2.450572E+001  8.841619E+000
 990.0000     -2.611753E+001  1.767075E+002 -7.264311E-001 -1.700596E+002 -7.257295E-001 -1.700891E+002 -2.423885E+001  8.499433E+000
 995.0000     -2.581170E+001  1.746001E+002 -7.336609E-001 -1.713181E+002 -7.341550E-001 -1.713460E+002 -2.398072E+001  8.106949E+000
1000.0000     -2.554992E+001  1.727137E+002 -7.428268E-001 -1.725947E+002 -7.424306E-001 -1.726219E+002 -2.375395E+001  7.405133E+000
1005.0000     -2.531936E+001  1.710265E+002 -7.504737E-001 -1.738851E+002 -7.515222E-001 -1.739072E+002 -2.355523E+001  6.632760E+000
1010.0000     -2.511299E+001  1.695719E+002 -7.592864E-001 -1.751802E+002 -7.595778E-001 -1.752005E+002 -2.333937E+001  5.902452E+000
1015.0000     -2.492126E+001  1.680381E+002 -7.674283E-001 -1.764752E+002 -7.678211E-001 -1.765017E+002 -2.308401E+001  5.378510E+000
1020.0000     -2.472980E+001  1.664819E+002 -7.753576E-001 -1.777790E+002 -7.758604E-001 -1.778040E+002 -2.281712E+001  4.863433E+000
1025.0000     -2.450324E+001  1.649129E+002 -7.838554E-001 -1.790973E+002 -7.848273E-001 -1.791182E+002 -2.256736E+001  4.201998E+000
1030.0000     -2.426720E+001  1.632678E+002 -7.930042E-001  1.795744E+002 -7.928223E-001  1.795510E+002 -2.236000E+001  3.464679E+000
1035.0000     -2.405071E+001  1.616044E+002 -8.016296E-001  1.782301E+002 -8.010306E-001  1.782038E+002 -2.216919E+001  2.647034E+000
1040.0000     -2.388439E+001  1.599215E+002 -8.089408E-001  1.768721E+002 -8.090844E-001  1.768501E+002 -2.200576E+001  1.790984E+000
1045.0000     -2.373347E+001  1.582729E+002 -8.168043E-001  1.755026E+002 -8.171102E-001  1.754799E+002 -2.183993E+001  1.012043E+000
1050.0000     -2.361078E+001  1.567809E+002 -8.268240E-001  1.741271E+002 -8.266586E-001  1.741098E+002 -2.167780E+001  3.734178E-001
1055.0000     -2.349810E+001  1.554516E+002 -8.379538E-001  1.727445E+002 -8.383557E-001  1.727285E+002 -2.151762E+001 -2.745510E-001
1060.0000     -2.338314E+001  1.540099E+002 -8.482620E-001  1.713538E+002 -8.477623E-001  1.713307E+002 -2.138785E+001 -1.049700E+000
1065.0000     -2.327135E+001  1.523908E+002 -8.573218E-001  1.699399E+002 -8.574189E-001  1.699180E+002 -2.129933E+001 -1.998332E+000
1070.0000     -2.316818E+001  1.506946E+002 -8.662334E-001  1.685095E+002 -8.664251E-001  1.684921E+002 -2.121586E+001 -3.114898E+000
1075.0000     -2.308611E+001  1.491467E+002 -8.762504E-001  1.670702E+002 -8.762410E-001  1.670475E+002 -2.110701E+001 -4.053045E+000
1080.0000     -2.301832E+001  1.477733E+002 -8.865918E-001  1.656163E+002 -8.864487E-001  1.656013E+002 -2.097682E+001 -4.962531E+000
1085.0000     -2.296077E+001  1.463787E+002 -8.976252E-001  1.641559E+002 -8.971764E-001  1.641385E+002 -2.086592E+001 -5.962535E+000
1090.0000     -2.288831E+001  1.451285E+002 -9.077978E-001  1.626739E+002 -9.073831E-001  1.626535E+002 -2.079759E+001 -6.959670E+000
1095.0000     -2.282058E+001  1.437422E+002 -9.181702E-001  1.611741E+002 -9.172577E-001  1.611584E+002 -2.074177E+001 -8.096386E+000
1100.0000     -2.278218E+001  1.422067E+002 -9.287622E-001  1.596666E+002 -9.280933E-001  1.596432E+002 -2.070022E+001 -9.154058E+000
1105.0000     -2.276672E+001  1.405397E+002 -9.397643E-001  1.581473E+002 -9.390671E-001  1.581202E+002 -2.064454E+001 -1.034267E+001
1110.0000     -2.278198E+001  1.390435E+002 -9.506491E-001  1.566104E+002 -9.505034E-001  1.565850E+002 -2.061319E+001 -1.145239E+001
1115.0000     -2.281909E+001  1.375381E+002 -9.628648E-001  1.550620E+002 -9.620035E-001  1.550383E+002 -2.059845E+001 -1.247513E+001
1120.0000     -2.286384E+001  1.360912E+002 -9.734613E-001  1.534967E+002 -9.738028E-001  1.534707E+002 -2.060307E+001 -1.346502E+001
1125.0000     -2.289923E+001  1.345122E+002 -9.858821E-001  1.519035E+002 -9.860427E-001  1.518805E+002 -2.062925E+001 -1.453359E+001
1130.0000     -2.293785E+001  1.327909E+002 -9.984306E-001  1.502803E+002 -9.979676E-001  1.502603E+002 -2.066007E+001 -1.561826E+001
1135.0000     -2.300480E+001  1.311168E+002 -1.010990E+000  1.486564E+002 -1.010181E+000  1.486352E+002 -2.069107E+001 -1.675239E+001
1140.0000     -2.311782E+001  1.293798E+002 -1.022676E+000  1.470291E+002 -1.022527E+000  1.470048E+002 -2.071589E+001 -1.781936E+001
1145.0000     -2.325851E+001  1.277928E+002 -1.034190E+000  1.453811E+002 -1.033969E+000  1.453606E+002 -2.075615E+001 -1.882431E+001
1150.0000     -2.341807E+001  1.261670E+002 -1.046975E+000  1.436971E+002 -1.047158E+000  1.436788E+002 -2.082209E+001 -1.966012E+001
1155.0000     -2.359540E+001  1.246491E+002 -1.059407E+000  1.419858E+002 -1.059725E+000  1.419617E+002 -2.092198E+001 -2.044382E+001
1160.0000     -2.381386E+001  1.230318E+002 -1.073003E+000  1.402535E+002 -1.072773E+000  1.402292E+002 -2.101754E+001 -2.121565E+001
1165.0000     -2.407665E+001  1.212665E+002 -1.086807E+000  1.385054E+002 -1.087202E+000  1.384866E+002 -2.111611E+001 -2.217147E+001
1170.0000     -2.439172E+001  1.193459E+002 -1.101465E+000  1.367497E+002 -1.101784E+000  1.367249E+002 -2.124044E+001 -2.314749E+001
