! Mini-Circuits
! S2P DATA File Format
! Type: LOW PASS FILTER
! Model: LFCG-1000+
! All S Parameters are in dB deg format
! TEST CONDITIONS: INPUT POWER = 0 dBm @ Temperature = +125deg C
# MHz S dB R 50
!Frequency        S11 dB  S11 DEG   S21 dB  S21 DEG   S12 dB  S12 DEG   S22 dB  S22 DEG
  10.0000     -3.490153E+001  5.792968E+001 -1.503499E-001 -1.803698E+000 -1.542184E-001 -1.966678E+000 -3.553594E+001  5.372951E+001
  13.0000     -3.433351E+001  3.405179E+001 -1.537329E-001 -2.160496E+000 -1.570395E-001 -2.285975E+000 -3.475293E+001  3.695708E+001
  16.0000     -3.463745E+001  1.965451E+001 -1.546533E-001 -2.593720E+000 -1.586738E-001 -2.684876E+000 -3.500101E+001  2.756484E+001
  19.0000     -3.516458E+001  1.370171E+001 -1.572330E-001 -3.044786E+000 -1.610831E-001 -3.134047E+000 -3.566808E+001  2.289275E+001
  20.0000     -3.549433E+001  1.336652E+001 -1.570003E-001 -3.198975E+000 -1.620538E-001 -3.278145E+000 -3.586407E+001  2.287699E+001
  30.0000     -3.689766E+001  2.873365E+001 -1.612075E-001 -4.719528E+000 -1.655714E-001 -4.784693E+000 -3.686480E+001  2.891419E+001
  40.0000     -3.496438E+001  4.039080E+001 -1.683109E-001 -6.231277E+000 -1.720957E-001 -6.283968E+000 -3.528675E+001  3.558369E+001
  50.0000     -3.365421E+001  3.765779E+001 -1.766752E-001 -7.706104E+000 -1.779859E-001 -7.745149E+000 -3.386341E+001  3.553429E+001
  60.0000     -3.371733E+001  3.854202E+001 -1.901152E-001 -9.191017E+000 -1.909365E-001 -9.234995E+000 -3.246980E+001  3.157046E+001
  70.0000     -3.315007E+001  3.948924E+001 -1.999213E-001 -1.067502E+001 -1.993291E-001 -1.072727E+001 -3.240006E+001  3.301304E+001
  80.0000     -3.207304E+001  3.954710E+001 -2.056355E-001 -1.218366E+001 -2.061289E-001 -1.222106E+001 -3.169884E+001  3.536535E+001
  90.0000     -3.141786E+001  3.748779E+001 -2.102226E-001 -1.366516E+001 -2.131534E-001 -1.369192E+001 -3.090351E+001  3.414772E+001
 100.0000     -3.139732E+001  3.677847E+001 -2.153881E-001 -1.513618E+001 -2.201574E-001 -1.515604E+001 -3.033880E+001  3.082783E+001
 110.0000     -3.111157E+001  3.817641E+001 -2.232534E-001 -1.662003E+001 -2.272112E-001 -1.663256E+001 -3.003748E+001  2.856982E+001
 120.0000     -3.061760E+001  3.744250E+001 -2.304795E-001 -1.809135E+001 -2.334180E-001 -1.810065E+001 -2.981917E+001  2.849586E+001
 130.0000     -3.011573E+001  3.722886E+001 -2.381840E-001 -1.957455E+001 -2.407763E-001 -1.958396E+001 -2.930046E+001  2.742509E+001
 140.0000     -3.015091E+001  3.617175E+001 -2.455635E-001 -2.106300E+001 -2.490210E-001 -2.106108E+001 -2.883791E+001  2.598463E+001
 150.0000     -3.013329E+001  3.612022E+001 -2.522152E-001 -2.253662E+001 -2.560486E-001 -2.254023E+001 -2.858718E+001  2.409917E+001
 160.0000     -2.957645E+001  3.751818E+001 -2.567203E-001 -2.399630E+001 -2.598564E-001 -2.399503E+001 -2.834028E+001  2.224270E+001
 170.0000     -2.919222E+001  3.632003E+001 -2.635812E-001 -2.547357E+001 -2.672579E-001 -2.547775E+001 -2.809052E+001  2.134196E+001
 180.0000     -2.925587E+001  3.486763E+001 -2.690803E-001 -2.694907E+001 -2.735816E-001 -2.695069E+001 -2.777392E+001  2.014878E+001
 190.0000     -2.927078E+001  3.465160E+001 -2.732242E-001 -2.842063E+001 -2.785322E-001 -2.841649E+001 -2.751398E+001  1.793605E+001
 200.0000     -2.899730E+001  3.488249E+001 -2.795514E-001 -2.989351E+001 -2.840206E-001 -2.990019E+001 -2.731526E+001  1.591994E+001
 210.0000     -2.875397E+001  3.369515E+001 -2.849564E-001 -3.137310E+001 -2.882607E-001 -3.137490E+001 -2.724685E+001  1.542221E+001
 220.0000     -2.874594E+001  3.376373E+001 -2.896282E-001 -3.285863E+001 -2.927725E-001 -3.286234E+001 -2.710080E+001  1.381368E+001
 230.0000     -2.879602E+001  3.401254E+001 -2.934522E-001 -3.434026E+001 -2.973171E-001 -3.434510E+001 -2.675124E+001  1.260704E+001
 240.0000     -2.860568E+001  3.360668E+001 -2.994714E-001 -3.582700E+001 -3.029439E-001 -3.582697E+001 -2.650954E+001  1.059216E+001
 250.0000     -2.828354E+001  3.393925E+001 -3.065242E-001 -3.732728E+001 -3.086415E-001 -3.733070E+001 -2.633217E+001  8.209038E+000
 260.0000     -2.813284E+001  3.363396E+001 -3.130445E-001 -3.882047E+001 -3.150052E-001 -3.882523E+001 -2.612797E+001  7.204520E+000
 270.0000     -2.826365E+001  3.297589E+001 -3.158321E-001 -4.031295E+001 -3.187843E-001 -4.031580E+001 -2.593990E+001  6.284759E+000
 280.0000     -2.815541E+001  3.332866E+001 -3.247697E-001 -4.180704E+001 -3.275878E-001 -4.180725E+001 -2.566027E+001  3.926277E+000
 290.0000     -2.784466E+001  3.281592E+001 -3.295943E-001 -4.331308E+001 -3.321388E-001 -4.331289E+001 -2.551763E+001  1.685819E+000
 300.0000     -2.777853E+001  3.194356E+001 -3.333128E-001 -4.482634E+001 -3.344523E-001 -4.482646E+001 -2.540386E+001  1.827703E-001
 310.0000     -2.784326E+001  3.182335E+001 -3.399087E-001 -4.633493E+001 -3.426547E-001 -4.633643E+001 -2.515848E+001 -9.402324E-001
 320.0000     -2.773002E+001  3.164363E+001 -3.428760E-001 -4.786096E+001 -3.465441E-001 -4.786016E+001 -2.504181E+001 -1.244049E+000
 330.0000     -2.745280E+001  3.181017E+001 -3.455026E-001 -4.936802E+001 -3.494565E-001 -4.937310E+001 -2.487386E+001 -3.857424E+000
 340.0000     -2.737966E+001  3.097940E+001 -3.523370E-001 -5.088058E+001 -3.561102E-001 -5.088355E+001 -2.472933E+001 -6.071636E+000
 350.0000     -2.733392E+001  3.007371E+001 -3.587159E-001 -5.239853E+001 -3.632737E-001 -5.240342E+001 -2.462362E+001 -7.215200E+000
 360.0000     -2.719889E+001  3.126837E+001 -3.616453E-001 -5.392879E+001 -3.656195E-001 -5.392990E+001 -2.444896E+001 -9.288369E+000
 370.0000     -2.714692E+001  3.092605E+001 -3.646834E-001 -5.547891E+001 -3.689842E-001 -5.548167E+001 -2.432124E+001 -1.055854E+001
 380.0000     -2.704048E+001  3.091739E+001 -3.699183E-001 -5.702638E+001 -3.730077E-001 -5.702775E+001 -2.416052E+001 -1.219639E+001
 390.0000     -2.696711E+001  2.981924E+001 -3.748567E-001 -5.857325E+001 -3.780598E-001 -5.858048E+001 -2.406950E+001 -1.345381E+001
 400.0000     -2.690277E+001  2.871574E+001 -3.810780E-001 -6.013557E+001 -3.838083E-001 -6.013402E+001 -2.398286E+001 -1.468162E+001
 410.0000     -2.684050E+001  2.908544E+001 -3.878881E-001 -6.168953E+001 -3.894608E-001 -6.169276E+001 -2.384223E+001 -1.672893E+001
 420.0000     -2.677306E+001  2.826485E+001 -3.923736E-001 -6.325524E+001 -3.947132E-001 -6.325830E+001 -2.373021E+001 -1.855933E+001
 430.0000     -2.665122E+001  2.725127E+001 -3.954322E-001 -6.482041E+001 -3.985037E-001 -6.481971E+001 -2.369077E+001 -2.000662E+001
 440.0000     -2.664091E+001  2.684656E+001 -4.001766E-001 -6.640136E+001 -4.031826E-001 -6.640262E+001 -2.362299E+001 -2.135919E+001
 450.0000     -2.665281E+001  2.577448E+001 -4.073859E-001 -6.800854E+001 -4.099863E-001 -6.800675E+001 -2.351110E+001 -2.276037E+001
 460.0000     -2.649296E+001  2.465528E+001 -4.112123E-001 -6.959959E+001 -4.149386E-001 -6.960313E+001 -2.341649E+001 -2.423562E+001
 470.0000     -2.643839E+001  2.438779E+001 -4.142173E-001 -7.119336E+001 -4.167660E-001 -7.119787E+001 -2.347883E+001 -2.598670E+001
 480.0000     -2.645921E+001  2.391123E+001 -4.210915E-001 -7.279390E+001 -4.239050E-001 -7.279464E+001 -2.352705E+001 -2.810560E+001
 490.0000     -2.651413E+001  2.330993E+001 -4.278024E-001 -7.440817E+001 -4.312917E-001 -7.440720E+001 -2.347007E+001 -2.944388E+001
 500.0000     -2.645142E+001  2.242572E+001 -4.326875E-001 -7.603616E+001 -4.365309E-001 -7.604204E+001 -2.341227E+001 -3.055722E+001
 510.0000     -2.625158E+001  2.127361E+001 -4.388261E-001 -7.767235E+001 -4.431565E-001 -7.768288E+001 -2.338422E+001 -3.294431E+001
 520.0000     -2.636610E+001  2.023436E+001 -4.418496E-001 -7.931890E+001 -4.473372E-001 -7.932076E+001 -2.329090E+001 -3.404823E+001
 530.0000     -2.645731E+001  1.951280E+001 -4.449402E-001 -8.097124E+001 -4.505460E-001 -8.096426E+001 -2.337201E+001 -3.581430E+001
 540.0000     -2.637417E+001  1.840171E+001 -4.539134E-001 -8.265278E+001 -4.579776E-001 -8.263244E+001 -2.341769E+001 -3.736367E+001
 550.0000     -2.632587E+001  1.705217E+001 -4.650529E-001 -8.432613E+001 -4.668527E-001 -8.431104E+001 -2.336706E+001 -3.869146E+001
 560.0000     -2.644236E+001  1.597899E+001 -4.706583E-001 -8.599033E+001 -4.718543E-001 -8.599093E+001 -2.342302E+001 -4.067503E+001
 570.0000     -2.638431E+001  1.522332E+001 -4.739035E-001 -8.768865E+001 -4.750193E-001 -8.769205E+001 -2.352013E+001 -4.193686E+001
 580.0000     -2.656951E+001  1.364174E+001 -4.773864E-001 -8.936777E+001 -4.800062E-001 -8.937921E+001 -2.355791E+001 -4.334284E+001
 590.0000     -2.675071E+001  1.225197E+001 -4.817710E-001 -9.107945E+001 -4.837056E-001 -9.109218E+001 -2.366750E+001 -4.443864E+001
 600.0000     -2.684187E+001  1.120331E+001 -4.872601E-001 -9.281264E+001 -4.901864E-001 -9.283425E+001 -2.378427E+001 -4.572900E+001
 610.0000     -2.704181E+001  9.801608E+000 -4.962149E-001 -9.455061E+001 -4.991232E-001 -9.457339E+001 -2.385805E+001 -4.741912E+001
 620.0000     -2.706015E+001  7.731670E+000 -5.015876E-001 -9.628991E+001 -5.059122E-001 -9.631685E+001 -2.401808E+001 -4.883554E+001
 630.0000     -2.712126E+001  5.572722E+000 -5.083402E-001 -9.804736E+001 -5.135339E-001 -9.807228E+001 -2.420564E+001 -5.035433E+001
 640.0000     -2.738024E+001  3.834426E+000 -5.148259E-001 -9.982397E+001 -5.204891E-001 -9.984296E+001 -2.434328E+001 -5.185099E+001
 650.0000     -2.767536E+001  2.713508E+000 -5.202878E-001 -1.016164E+002 -5.266925E-001 -1.016261E+002 -2.451498E+001 -5.299813E+001
 660.0000     -2.784508E+001  1.500652E+000 -5.255433E-001 -1.034150E+002 -5.318077E-001 -1.034180E+002 -2.477988E+001 -5.417670E+001
 670.0000     -2.804279E+001 -7.960103E-001 -5.345774E-001 -1.052384E+002 -5.400059E-001 -1.052405E+002 -2.494700E+001 -5.514912E+001
 680.0000     -2.826350E+001 -3.349180E+000 -5.400835E-001 -1.070585E+002 -5.451958E-001 -1.070665E+002 -2.521258E+001 -5.596626E+001
 690.0000     -2.851194E+001 -5.628049E+000 -5.471949E-001 -1.089041E+002 -5.528172E-001 -1.089108E+002 -2.547374E+001 -5.668432E+001
 700.0000     -2.885406E+001 -8.581577E+000 -5.568288E-001 -1.107647E+002 -5.630171E-001 -1.107670E+002 -2.573684E+001 -5.734007E+001
 710.0000     -2.930525E+001 -1.167292E+001 -5.623596E-001 -1.126311E+002 -5.673605E-001 -1.126355E+002 -2.606092E+001 -5.779096E+001
 720.0000     -2.970538E+001 -1.437610E+001 -5.682038E-001 -1.145327E+002 -5.740636E-001 -1.145349E+002 -2.634000E+001 -5.859783E+001
 730.0000     -3.006888E+001 -1.793960E+001 -5.793280E-001 -1.164469E+002 -5.853201E-001 -1.164455E+002 -2.674591E+001 -5.951005E+001
 740.0000     -3.050737E+001 -2.093816E+001 -5.866939E-001 -1.183638E+002 -5.931843E-001 -1.183635E+002 -2.716999E+001 -6.045022E+001
 750.0000     -3.096433E+001 -2.445633E+001 -5.916695E-001 -1.202941E+002 -5.967770E-001 -1.202977E+002 -2.762079E+001 -5.968928E+001
 760.0000     -3.135620E+001 -2.985988E+001 -6.012250E-001 -1.222628E+002 -6.057580E-001 -1.222656E+002 -2.815416E+001 -5.737500E+001
 770.0000     -3.190901E+001 -3.432205E+001 -6.117626E-001 -1.242350E+002 -6.175581E-001 -1.242413E+002 -2.850837E+001 -5.718664E+001
 780.0000     -3.219170E+001 -3.908511E+001 -6.190796E-001 -1.262259E+002 -6.242338E-001 -1.262279E+002 -2.896979E+001 -5.620637E+001
 790.0000     -3.266965E+001 -4.518840E+001 -6.248259E-001 -1.282495E+002 -6.302039E-001 -1.282509E+002 -2.938765E+001 -5.351530E+001
 800.0000     -3.339487E+001 -5.260088E+001 -6.345810E-001 -1.302955E+002 -6.398602E-001 -1.302946E+002 -2.981408E+001 -5.081101E+001
 810.0000     -3.386716E+001 -6.075554E+001 -6.465836E-001 -1.323567E+002 -6.520850E-001 -1.323593E+002 -3.041484E+001 -4.775618E+001
 820.0000     -3.408004E+001 -6.842433E+001 -6.547357E-001 -1.344299E+002 -6.607463E-001 -1.344366E+002 -3.092039E+001 -4.180531E+001
 830.0000     -3.441056E+001 -7.794926E+001 -6.681321E-001 -1.365542E+002 -6.743900E-001 -1.365541E+002 -3.107461E+001 -3.834841E+001
 840.0000     -3.453336E+001 -8.871484E+001 -6.798834E-001 -1.386694E+002 -6.849887E-001 -1.386740E+002 -3.125206E+001 -3.346064E+001
 850.0000     -3.444846E+001 -9.929920E+001 -6.882325E-001 -1.408036E+002 -6.942963E-001 -1.408073E+002 -3.125367E+001 -2.618321E+001
 860.0000     -3.424208E+001 -1.099422E+002 -7.021037E-001 -1.429991E+002 -7.064652E-001 -1.430083E+002 -3.100358E+001 -2.128377E+001
 870.0000     -3.357472E+001 -1.195847E+002 -7.111713E-001 -1.452073E+002 -7.163084E-001 -1.452130E+002 -3.079983E+001 -1.629795E+001
 880.0000     -3.305660E+001 -1.288478E+002 -7.252412E-001 -1.474300E+002 -7.305458E-001 -1.474289E+002 -3.049616E+001 -1.127793E+001
 890.0000     -3.235254E+001 -1.377547E+002 -7.387966E-001 -1.496851E+002 -7.431651E-001 -1.496855E+002 -2.978309E+001 -7.448637E+000
 900.0000     -3.142739E+001 -1.441759E+002 -7.505520E-001 -1.519674E+002 -7.548645E-001 -1.519641E+002 -2.891222E+001 -4.174965E+000
 905.0000     -3.102387E+001 -1.467109E+002 -7.572467E-001 -1.531083E+002 -7.624829E-001 -1.531043E+002 -2.850809E+001 -2.214267E+000
 910.0000     -3.061728E+001 -1.493607E+002 -7.655013E-001 -1.542655E+002 -7.692609E-001 -1.542596E+002 -2.814870E+001 -7.109930E-001
 915.0000     -3.026796E+001 -1.524832E+002 -7.735069E-001 -1.554322E+002 -7.772601E-001 -1.554306E+002 -2.786216E+001  4.638952E-002
 920.0000     -2.990598E+001 -1.557440E+002 -7.814667E-001 -1.566152E+002 -7.851009E-001 -1.566086E+002 -2.761115E+001  3.905221E-001
 925.0000     -2.953567E+001 -1.587845E+002 -7.887776E-001 -1.577967E+002 -7.926253E-001 -1.577936E+002 -2.736249E+001  7.073326E-001
 930.0000     -2.913536E+001 -1.614987E+002 -7.977394E-001 -1.589806E+002 -8.001398E-001 -1.589805E+002 -2.708219E+001  1.183769E+000
 935.0000     -2.872846E+001 -1.638466E+002 -8.052447E-001 -1.601768E+002 -8.082004E-001 -1.601779E+002 -2.680042E+001  1.861275E+000
 940.0000     -2.834711E+001 -1.660381E+002 -8.139319E-001 -1.613860E+002 -8.164052E-001 -1.613870E+002 -2.648839E+001  2.583066E+000
 945.0000     -2.801086E+001 -1.682910E+002 -8.220334E-001 -1.625987E+002 -8.256371E-001 -1.626018E+002 -2.615549E+001  3.193135E+000
 950.0000     -2.771511E+001 -1.705065E+002 -8.312646E-001 -1.638197E+002 -8.336677E-001 -1.638270E+002 -2.579307E+001  3.260113E+000
 955.0000     -2.746551E+001 -1.726617E+002 -8.402274E-001 -1.650441E+002 -8.419753E-001 -1.650555E+002 -2.543535E+001  3.142839E+000
 960.0000     -2.719109E+001 -1.746706E+002 -8.478845E-001 -1.662746E+002 -8.503056E-001 -1.662896E+002 -2.509885E+001  2.786716E+000
 965.0000     -2.691160E+001 -1.765055E+002 -8.559052E-001 -1.675196E+002 -8.582727E-001 -1.675345E+002 -2.480111E+001  2.642464E+000
 970.0000     -2.664602E+001 -1.782356E+002 -8.633276E-001 -1.687722E+002 -8.656808E-001 -1.687956E+002 -2.453996E+001  2.470934E+000
 975.0000     -2.639695E+001 -1.796566E+002 -8.710200E-001 -1.700371E+002 -8.745565E-001 -1.700632E+002 -2.431297E+001  2.307329E+000
 980.0000     -2.617495E+001  1.787778E+002 -8.796799E-001 -1.713155E+002 -8.836497E-001 -1.713405E+002 -2.411998E+001  2.173018E+000
 985.0000     -2.594163E+001  1.770356E+002 -8.887190E-001 -1.726020E+002 -8.932282E-001 -1.726241E+002 -2.389889E+001  1.921523E+000
 990.0000     -2.568368E+001  1.750729E+002 -8.986012E-001 -1.738866E+002 -9.026121E-001 -1.739130E+002 -2.365233E+001  1.491501E+000
 995.0000     -2.542033E+001  1.730626E+002 -9.079818E-001 -1.751867E+002 -9.134365E-001 -1.752116E+002 -2.341274E+001  1.008222E+000
1000.0000     -2.519525E+001  1.712663E+002 -9.186220E-001 -1.765034E+002 -9.239174E-001 -1.765280E+002 -2.320237E+001  2.257600E-001
1005.0000     -2.499573E+001  1.696705E+002 -9.291250E-001 -1.778341E+002 -9.348219E-001 -1.778566E+002 -2.301892E+001 -6.433992E-001
1010.0000     -2.481958E+001  1.682690E+002 -9.393967E-001 -1.791735E+002 -9.447980E-001 -1.791923E+002 -2.282243E+001 -1.475715E+000
1015.0000     -2.465457E+001  1.667945E+002 -9.489779E-001  1.794861E+002 -9.548028E-001  1.794663E+002 -2.259043E+001 -2.121737E+000
1020.0000     -2.449620E+001  1.653274E+002 -9.593574E-001  1.781384E+002 -9.647886E-001  1.781160E+002 -2.235366E+001 -2.753252E+000
1025.0000     -2.430189E+001  1.637997E+002 -9.701961E-001  1.767730E+002 -9.755605E-001  1.767607E+002 -2.213903E+001 -3.492433E+000
1030.0000     -2.409938E+001  1.621662E+002 -9.806778E-001  1.753987E+002 -9.865052E-001  1.753812E+002 -2.196436E+001 -4.321000E+000
1035.0000     -2.391574E+001  1.605499E+002 -9.920342E-001  1.740066E+002 -9.963826E-001  1.739890E+002 -2.179970E+001 -5.203761E+000
1040.0000     -2.377412E+001  1.589050E+002 -1.000686E+000  1.725983E+002 -1.006511E+000  1.725833E+002 -2.166263E+001 -6.120606E+000
1045.0000     -2.365487E+001  1.572776E+002 -1.011239E+000  1.711816E+002 -1.016639E+000  1.711671E+002 -2.152499E+001 -6.966933E+000
1050.0000     -2.355658E+001  1.558182E+002 -1.023270E+000  1.697523E+002 -1.028671E+000  1.697448E+002 -2.138910E+001 -7.682469E+000
1055.0000     -2.346795E+001  1.544936E+002 -1.036554E+000  1.683203E+002 -1.041751E+000  1.683119E+002 -2.126049E+001 -8.411832E+000
1060.0000     -2.338326E+001  1.530457E+002 -1.049563E+000  1.668764E+002 -1.053985E+000  1.668658E+002 -2.115776E+001 -9.241817E+000
1065.0000     -2.330651E+001  1.514511E+002 -1.060784E+000  1.654062E+002 -1.066352E+000  1.653962E+002 -2.109397E+001 -1.021425E+001
1070.0000     -2.324314E+001  1.497956E+002 -1.072284E+000  1.639216E+002 -1.077392E+000  1.639134E+002 -2.103260E+001 -1.134598E+001
1075.0000     -2.319795E+001  1.482945E+002 -1.084756E+000  1.624227E+002 -1.089873E+000  1.624165E+002 -2.094808E+001 -1.230920E+001
1080.0000     -2.316455E+001  1.469863E+002 -1.097679E+000  1.609150E+002 -1.103009E+000  1.609103E+002 -2.083964E+001 -1.327786E+001
1085.0000     -2.314213E+001  1.456489E+002 -1.111384E+000  1.593947E+002 -1.116073E+000  1.593863E+002 -2.075088E+001 -1.435495E+001
1090.0000     -2.309928E+001  1.444163E+002 -1.124462E+000  1.578521E+002 -1.128910E+000  1.578414E+002 -2.070430E+001 -1.541921E+001
1095.0000     -2.306376E+001  1.430630E+002 -1.137579E+000  1.562905E+002 -1.141701E+000  1.562826E+002 -2.067275E+001 -1.661224E+001
1100.0000     -2.306147E+001  1.415611E+002 -1.150978E+000  1.547173E+002 -1.154952E+000  1.547046E+002 -2.066264E+001 -1.774274E+001
1105.0000     -2.309238E+001  1.399619E+002 -1.164568E+000  1.531285E+002 -1.169358E+000  1.531140E+002 -2.064045E+001 -1.895406E+001
1110.0000     -2.315034E+001  1.385373E+002 -1.178893E+000  1.515276E+002 -1.183532E+000  1.515136E+002 -2.064367E+001 -2.006437E+001
1115.0000     -2.323422E+001  1.370971E+002 -1.193788E+000  1.499107E+002 -1.198251E+000  1.498968E+002 -2.066516E+001 -2.108644E+001
1120.0000     -2.332939E+001  1.357088E+002 -1.208288E+000  1.482730E+002 -1.212957E+000  1.482591E+002 -2.070271E+001 -2.203830E+001
1125.0000     -2.341984E+001  1.342155E+002 -1.223388E+000  1.466088E+002 -1.228469E+000  1.465918E+002 -2.076411E+001 -2.305097E+001
1130.0000     -2.352310E+001  1.325814E+002 -1.239688E+000  1.449118E+002 -1.243788E+000  1.449032E+002 -2.082940E+001 -2.406231E+001
1135.0000     -2.366047E+001  1.309949E+002 -1.255644E+000  1.432083E+002 -1.259621E+000  1.431980E+002 -2.089566E+001 -2.512074E+001
1140.0000     -2.385512E+001  1.293684E+002 -1.271076E+000  1.415032E+002 -1.276338E+000  1.414870E+002 -2.096174E+001 -2.611620E+001
1145.0000     -2.407678E+001  1.278769E+002 -1.286838E+000  1.397765E+002 -1.291096E+000  1.397609E+002 -2.104435E+001 -2.703918E+001
1150.0000     -2.432780E+001  1.263695E+002 -1.303142E+000  1.380080E+002 -1.308424E+000  1.379974E+002 -2.115408E+001 -2.777413E+001
1155.0000     -2.460722E+001  1.249818E+002 -1.320022E+000  1.362130E+002 -1.324695E+000  1.361942E+002 -2.129888E+001 -2.843653E+001
1160.0000     -2.494597E+001  1.235700E+002 -1.337856E+000  1.343876E+002 -1.342867E+000  1.343738E+002 -2.144309E+001 -2.904991E+001
1165.0000     -2.535234E+001  1.220791E+002 -1.356436E+000  1.325496E+002 -1.361161E+000  1.325357E+002 -2.159438E+001 -2.982019E+001
1170.0000     -2.583657E+001  1.204492E+002 -1.376106E+000  1.306975E+002 -1.380516E+000  1.306808E+002 -2.177275E+001 -3.059974E+001
