!Created: 08-06-2012 at 10:37:37
!MODEL: TCM2-33X+,Run # MHU7050
!S/N: Unit 1
!PORT1=PRIMARY DOT PORT2=SECONDARY DOT PORT3=SECONDARY
# MHz S dB R 50
!Frequency        S11 dB  S11 DEG   S12 dB  S12 DEG   S13 dB  S13 DEG   S21 dB  S21 DEG   S22 dB  S22 DEG   S23 dB  S23 DEG   S31 dB  S31 DEG   S32 dB  S32 DEG   S33 dB  S33 DEG
  10.0000         -23.42     73.3     -4.32     3.02     -4.37     -177.13     -4.31     2.97     -4.15     176.19     -8.91     -178.02     -4.35     -177.15     -8.91     -177.99     -4.11     176.76
  20.0000         -26.22     52.98     -4.26     1.04     -4.31     -179.24     -4.25     0.96     -4.23     175.53     -8.87     179.05     -4.29     -179.29     -8.86     179.06     -4.19     176.69
  30.0000         -27     44.02     -4.24     0.07     -4.3     179.69     -4.23     0.04     -4.25     174.31     -8.87     177.25     -4.28     179.65     -8.86     177.21     -4.22     176.07
  40.0000         -27.13     40.42     -4.23     -0.54     -4.3     178.93     -4.22     -0.6     -4.28     172.96     -8.88     175.69     -4.28     178.88     -8.87     175.67     -4.24     175.32
  50.0000         -26.98     38.75     -4.23     -1.1     -4.3     178.29     -4.22     -1.13     -4.31     171.53     -8.89     174.28     -4.28     178.24     -8.88     174.26     -4.26     174.49
  60.0000         -26.74     37.74     -4.22     -1.55     -4.3     177.73     -4.22     -1.6     -4.33     170.12     -8.91     172.93     -4.28     177.66     -8.9     172.92     -4.28     173.66
  70.0000         -26.52     37.42     -4.22     -1.97     -4.3     177.19     -4.22     -2.04     -4.35     168.72     -8.93     171.63     -4.28     177.13     -8.91     171.63     -4.3     172.85
  80.0000         -26.31     37.09     -4.22     -2.4     -4.3     176.67     -4.22     -2.44     -4.38     167.33     -8.94     170.39     -4.29     176.62     -8.93     170.37     -4.32     172.06
  90.0000         -26.12     37.31     -4.22     -2.8     -4.3     176.18     -4.22     -2.85     -4.4     165.94     -8.96     169.17     -4.29     176.11     -8.95     169.13     -4.33     171.28
 100.0000         -25.9     37.49     -4.22     -3.18     -4.3     175.7     -4.22     -3.25     -4.42     164.57     -8.98     167.95     -4.29     175.62     -8.97     167.92     -4.35     170.48
 110.0000         -25.75     37.02     -4.22     -3.57     -4.31     175.2     -4.22     -3.62     -4.45     163.24     -9     166.75     -4.29     175.15     -8.99     166.73     -4.37     169.72
 120.0000         -25.65     35.51     -4.22     -4     -4.31     174.68     -4.21     -3.96     -4.48     161.91     -9.01     165.56     -4.29     174.7     -8.99     165.53     -4.39     168.99
 130.0000         -25.45     35.11     -4.21     -4.39     -4.31     174.19     -4.21     -4.31     -4.51     160.56     -9.02     164.38     -4.3     174.23     -9.01     164.33     -4.41     168.21
 140.0000         -25.11     36.85     -4.21     -4.71     -4.32     173.77     -4.2     -4.7     -4.53     159.18     -9.06     163.14     -4.31     173.71     -9.06     163.06     -4.42     167.38
 150.0000         -24.77     38.93     -4.21     -5.02     -4.32     173.36     -4.2     -5.11     -4.55     157.8     -9.1     161.9     -4.32     173.19     -9.1     161.81     -4.42     166.53
 160.0000         -24.49     39.82     -4.21     -5.37     -4.33     172.91     -4.2     -5.48     -4.57     156.4     -9.14     160.76     -4.32     172.74     -9.13     160.69     -4.43     165.67
 170.0000         -24.22     40.02     -4.21     -5.75     -4.33     172.45     -4.2     -5.84     -4.59     155.02     -9.17     159.66     -4.32     172.33     -9.16     159.63     -4.45     164.84
 180.0000         -23.96     40.27     -4.21     -6.12     -4.34     172.01     -4.21     -6.2     -4.62     153.65     -9.21     158.58     -4.32     171.92     -9.18     158.57     -4.46     164.02
 190.0000         -23.76     40.82     -4.21     -6.47     -4.34     171.58     -4.21     -6.55     -4.65     152.31     -9.24     157.48     -4.32     171.49     -9.22     157.48     -4.48     163.24
 200.0000         -23.55     41.16     -4.2     -6.83     -4.35     171.13     -4.21     -6.91     -4.67     151.01     -9.27     156.37     -4.33     171.05     -9.25     156.38     -4.49     162.5
 210.0000         -23.39     41.66     -4.2     -7.18     -4.35     170.72     -4.2     -7.27     -4.7     149.75     -9.3     155.28     -4.33     170.6     -9.28     155.27     -4.5     161.79
 220.0000         -23.24     41.93     -4.2     -7.52     -4.36     170.3     -4.2     -7.61     -4.73     148.48     -9.34     154.2     -4.34     170.18     -9.31     154.19     -4.51     161.09
 230.0000         -23.1     42.03     -4.2     -7.88     -4.36     169.86     -4.2     -7.98     -4.76     147.23     -9.37     153.11     -4.34     169.74     -9.35     153.1     -4.53     160.39
 240.0000         -22.95     42.02     -4.2     -8.23     -4.36     169.42     -4.2     -8.34     -4.8     146     -9.4     152.02     -4.34     169.29     -9.38     152.03     -4.55     159.68
 250.0000         -22.78     42.07     -4.19     -8.58     -4.36     168.98     -4.19     -8.69     -4.83     144.76     -9.43     150.96     -4.35     168.86     -9.41     150.96     -4.56     158.94
 260.0000         -22.59     42.29     -4.19     -8.91     -4.37     168.57     -4.19     -9.03     -4.86     143.52     -9.47     149.93     -4.35     168.42     -9.45     149.92     -4.58     158.18
 270.0000         -22.39     42.51     -4.19     -9.26     -4.38     168.13     -4.19     -9.38     -4.89     142.29     -9.51     148.89     -4.36     167.99     -9.48     148.89     -4.6     157.4
 280.0000         -22.17     42.66     -4.18     -9.61     -4.38     167.69     -4.19     -9.72     -4.92     141.06     -9.54     147.87     -4.36     167.57     -9.52     147.88     -4.61     156.62
 290.0000         -21.95     42.76     -4.18     -9.96     -4.38     167.25     -4.18     -10.07     -4.95     139.83     -9.58     146.86     -4.37     167.13     -9.56     146.87     -4.63     155.85
 300.0000         -21.75     43.01     -4.17     -10.31     -4.39     166.84     -4.17     -10.42     -4.99     138.62     -9.62     145.88     -4.37     166.71     -9.6     145.89     -4.64     155.09
 310.0000         -21.57     43.28     -4.17     -10.67     -4.4     166.44     -4.17     -10.77     -5.02     137.42     -9.66     144.9     -4.38     166.29     -9.64     144.92     -4.65     154.35
 320.0000         -21.43     43.44     -4.16     -11.04     -4.4     166.02     -4.17     -11.15     -5.06     136.22     -9.7     143.91     -4.39     165.88     -9.68     143.95     -4.66     153.66
 330.0000         -21.31     43.47     -4.16     -11.42     -4.41     165.59     -4.16     -11.52     -5.1     135.05     -9.73     142.91     -4.39     165.47     -9.71     142.98     -4.68     152.98
 340.0000         -21.18     43.35     -4.16     -11.78     -4.42     165.18     -4.16     -11.9     -5.13     133.89     -9.77     141.95     -4.4     165.06     -9.75     142.01     -4.7     152.31
 350.0000         -21.04     43.32     -4.15     -12.14     -4.42     164.78     -4.16     -12.26     -5.17     132.73     -9.8     141.01     -4.4     164.64     -9.78     141.09     -4.71     151.63
 360.0000         -20.93     43.38     -4.15     -12.49     -4.42     164.38     -4.15     -12.63     -5.2     131.62     -9.84     140.08     -4.4     164.25     -9.82     140.15     -4.73     150.95
 370.0000         -20.8     43.21     -4.15     -12.86     -4.42     163.97     -4.15     -12.98     -5.24     130.5     -9.88     139.13     -4.4     163.83     -9.86     139.2     -4.75     150.26
 380.0000         -20.67     43.09     -4.14     -13.22     -4.43     163.55     -4.15     -13.34     -5.27     129.41     -9.92     138.17     -4.41     163.41     -9.89     138.28     -4.77     149.57
 390.0000         -20.53     42.97     -4.14     -13.58     -4.43     163.11     -4.14     -13.71     -5.3     128.33     -9.96     137.24     -4.41     162.99     -9.93     137.37     -4.78     148.85
 400.0000         -20.39     42.93     -4.14     -13.94     -4.43     162.71     -4.14     -14.06     -5.33     127.25     -10     136.34     -4.41     162.59     -9.97     136.46     -4.8     148.11
 410.0000         -20.25     42.92     -4.13     -14.3     -4.44     162.31     -4.13     -14.43     -5.37     126.18     -10.03     135.46     -4.42     162.17     -10.01     135.57     -4.81     147.39
 420.0000         -20.12     42.78     -4.12     -14.68     -4.45     161.88     -4.13     -14.8     -5.41     125.11     -10.07     134.55     -4.42     161.75     -10.05     134.68     -4.83     146.68
 430.0000         -20     42.69     -4.12     -15.05     -4.45     161.46     -4.12     -15.18     -5.44     124.05     -10.11     133.65     -4.43     161.33     -10.09     133.79     -4.84     145.99
 440.0000         -19.89     42.64     -4.11     -15.45     -4.46     161.04     -4.12     -15.58     -5.48     122.98     -10.15     132.76     -4.44     160.94     -10.13     132.91     -4.85     145.31
 450.0000         -19.77     42.51     -4.11     -15.81     -4.46     160.66     -4.12     -15.95     -5.52     121.91     -10.19     131.93     -4.44     160.53     -10.16     132.04     -4.87     144.64
 460.0000         -19.66     42.35     -4.1     -16.2     -4.47     160.27     -4.11     -16.33     -5.56     120.87     -10.23     131.07     -4.45     160.14     -10.2     131.19     -4.88     143.98
 470.0000         -19.56     42.19     -4.1     -16.58     -4.47     159.88     -4.11     -16.72     -5.59     119.84     -10.26     130.18     -4.45     159.75     -10.24     130.35     -4.89     143.33
 480.0000         -19.45     41.9     -4.1     -16.98     -4.48     159.47     -4.11     -17.1     -5.62     118.82     -10.3     129.32     -4.46     159.34     -10.28     129.51     -4.9     142.68
 490.0000         -19.35     41.63     -4.1     -17.36     -4.48     159.07     -4.11     -17.5     -5.65     117.83     -10.33     128.47     -4.46     158.95     -10.31     128.66     -4.91     142.04
 500.0000         -19.24     41.39     -4.09     -17.74     -4.48     158.68     -4.1     -17.88     -5.69     116.85     -10.37     127.65     -4.46     158.55     -10.35     127.84     -4.92     141.39
 510.0000         -19.13     41.18     -4.09     -18.12     -4.49     158.28     -4.1     -18.26     -5.72     115.88     -10.41     126.83     -4.47     158.17     -10.39     127.05     -4.93     140.74
 520.0000         -19.02     40.94     -4.09     -18.5     -4.49     157.88     -4.1     -18.63     -5.75     114.93     -10.45     126.03     -4.47     157.75     -10.43     126.25     -4.94     140.11
 530.0000         -18.93     40.76     -4.09     -18.89     -4.5     157.46     -4.1     -19.03     -5.78     113.97     -10.49     125.22     -4.48     157.35     -10.47     125.46     -4.95     139.48
 540.0000         -18.84     40.57     -4.08     -19.29     -4.5     157.05     -4.1     -19.42     -5.82     113.02     -10.53     124.43     -4.48     156.96     -10.51     124.67     -4.97     138.86
 550.0000         -18.76     40.46     -4.08     -19.68     -4.51     156.66     -4.09     -19.81     -5.85     112.07     -10.56     123.67     -4.49     156.57     -10.55     123.9     -4.98     138.24
 560.0000         -18.68     40.32     -4.08     -20.06     -4.51     156.29     -4.09     -20.2     -5.89     111.11     -10.6     122.9     -4.49     156.18     -10.58     123.15     -4.99     137.61
 570.0000         -18.61     40.15     -4.08     -20.47     -4.52     155.89     -4.09     -20.6     -5.93     110.16     -10.63     122.11     -4.5     155.8     -10.61     122.38     -5.01     136.99
 580.0000         -18.53     39.97     -4.08     -20.86     -4.52     155.5     -4.09     -21     -5.96     109.22     -10.66     121.33     -4.5     155.42     -10.65     121.64     -5.02     136.38
 590.0000         -18.45     39.78     -4.08     -21.27     -4.52     155.11     -4.09     -21.39     -5.99     108.29     -10.69     120.56     -4.5     155.03     -10.68     120.89     -5.04     135.75
 600.0000         -18.36     39.55     -4.08     -21.64     -4.53     154.74     -4.09     -21.78     -6.02     107.39     -10.73     119.83     -4.51     154.66     -10.72     120.15     -5.05     135.12
 610.0000         -18.27     39.29     -4.08     -22.02     -4.53     154.34     -4.09     -22.16     -6.05     106.51     -10.76     119.09     -4.51     154.26     -10.75     119.43     -5.05     134.48
 620.0000         -18.19     38.97     -4.08     -22.41     -4.53     153.95     -4.09     -22.55     -6.08     105.67     -10.8     118.37     -4.52     153.87     -10.79     118.71     -5.06     133.87
 630.0000         -18.11     38.58     -4.08     -22.8     -4.54     153.53     -4.09     -22.95     -6.11     104.83     -10.83     117.66     -4.52     153.48     -10.82     117.98     -5.06     133.28
 640.0000         -18.04     38.22     -4.07     -23.19     -4.54     153.14     -4.09     -23.34     -6.14     103.99     -10.86     116.95     -4.53     153.09     -10.86     117.29     -5.07     132.72
 650.0000         -17.97     37.92     -4.07     -23.58     -4.55     152.76     -4.08     -23.73     -6.17     103.17     -10.89     116.29     -4.53     152.72     -10.89     116.63     -5.07     132.16
 660.0000         -17.92     37.63     -4.07     -23.97     -4.56     152.4     -4.08     -24.12     -6.21     102.33     -10.92     115.63     -4.54     152.34     -10.92     115.95     -5.08     131.61
 670.0000         -17.87     37.34     -4.07     -24.36     -4.56     152.03     -4.08     -24.53     -6.24     101.48     -10.94     114.93     -4.54     151.98     -10.95     115.28     -5.09     131.1
 680.0000         -17.83     37.06     -4.07     -24.77     -4.56     151.65     -4.08     -24.92     -6.27     100.62     -10.96     114.28     -4.54     151.6     -10.97     114.63     -5.11     130.55
 690.0000         -17.77     36.85     -4.07     -25.17     -4.56     151.27     -4.08     -25.31     -6.3     99.76     -10.99     113.58     -4.55     151.23     -11     113.96     -5.12     130
 700.0000         -17.7     36.68     -4.07     -25.58     -4.56     150.89     -4.08     -25.71     -6.33     98.91     -11.02     112.92     -4.55     150.84     -11.02     113.26     -5.14     129.4
 710.0000         -17.64     36.52     -4.07     -25.96     -4.57     150.51     -4.08     -26.11     -6.36     98.07     -11.04     112.27     -4.55     150.45     -11.05     112.6     -5.15     128.78
 720.0000         -17.58     36.31     -4.07     -26.36     -4.57     150.11     -4.08     -26.5     -6.38     97.28     -11.07     111.61     -4.55     150.07     -11.08     111.91     -5.16     128.15
 730.0000         -17.52     36.02     -4.07     -26.75     -4.57     149.71     -4.08     -26.89     -6.41     96.5     -11.09     110.93     -4.56     149.68     -11.11     111.26     -5.17     127.54
 740.0000         -17.46     35.67     -4.07     -27.14     -4.58     149.33     -4.08     -27.28     -6.43     95.74     -11.12     110.27     -4.56     149.29     -11.14     110.6     -5.17     126.94
 750.0000         -17.41     35.36     -4.07     -27.54     -4.58     148.94     -4.08     -27.67     -6.46     94.99     -11.14     109.6     -4.57     148.92     -11.16     109.98     -5.17     126.36
 760.0000         -17.35     35.01     -4.07     -27.93     -4.58     148.59     -4.08     -28.07     -6.49     94.25     -11.17     109.03     -4.57     148.55     -11.19     109.36     -5.18     125.8
 770.0000         -17.32     34.59     -4.07     -28.33     -4.59     148.2     -4.08     -28.46     -6.52     93.5     -11.19     108.37     -4.57     148.18     -11.22     108.75     -5.18     125.28
 780.0000         -17.28     34.22     -4.07     -28.74     -4.59     147.83     -4.08     -28.88     -6.55     92.73     -11.21     107.76     -4.58     147.82     -11.24     108.15     -5.19     124.79
 790.0000         -17.25     33.92     -4.07     -29.15     -4.59     147.45     -4.08     -29.29     -6.58     91.95     -11.23     107.19     -4.58     147.45     -11.27     107.54     -5.2     124.28
 800.0000         -17.21     33.63     -4.07     -29.55     -4.59     147.09     -4.08     -29.69     -6.61     91.16     -11.25     106.57     -4.58     147.07     -11.29     106.93     -5.21     123.76
 810.0000         -17.17     33.45     -4.07     -29.95     -4.59     146.73     -4.09     -30.08     -6.64     90.38     -11.27     106     -4.59     146.7     -11.31     106.28     -5.23     123.2
 820.0000         -17.12     33.17     -4.07     -30.35     -4.59     146.34     -4.09     -30.48     -6.66     89.62     -11.29     105.37     -4.59     146.32     -11.33     105.67     -5.24     122.62
 830.0000         -17.08     32.95     -4.08     -30.75     -4.59     145.95     -4.09     -30.87     -6.68     88.89     -11.31     104.76     -4.59     145.95     -11.35     105.03     -5.26     122.01
 840.0000         -17.03     32.64     -4.08     -31.14     -4.59     145.57     -4.09     -31.26     -6.71     88.18     -11.32     104.14     -4.59     145.57     -11.37     104.43     -5.27     121.39
 850.0000         -16.98     32.37     -4.08     -31.53     -4.6     145.2     -4.09     -31.65     -6.73     87.5     -11.35     103.55     -4.59     145.19     -11.4     103.81     -5.27     120.75
 860.0000         -16.93     32.02     -4.08     -31.91     -4.6     144.82     -4.09     -32.04     -6.75     86.81     -11.37     102.95     -4.6     144.8     -11.42     103.23     -5.28     120.12
 870.0000         -16.89     31.66     -4.08     -32.3     -4.6     144.43     -4.09     -32.44     -6.78     86.14     -11.39     102.35     -4.6     144.41     -11.44     102.62     -5.28     119.54
 880.0000         -16.86     31.29     -4.08     -32.71     -4.6     144.04     -4.09     -32.84     -6.81     85.43     -11.41     101.76     -4.6     144.02     -11.46     102.04     -5.28     118.98
 890.0000         -16.82     30.95     -4.08     -33.11     -4.61     143.65     -4.1     -33.25     -6.83     84.71     -11.42     101.2     -4.61     143.65     -11.48     101.47     -5.28     118.44
 900.0000         -16.78     30.64     -4.08     -33.51     -4.61     143.29     -4.1     -33.66     -6.86     83.97     -11.44     100.66     -4.61     143.27     -11.5     100.9     -5.29     117.92
 910.0000         -16.74     30.4     -4.09     -33.93     -4.61     142.92     -4.1     -34.05     -6.88     83.21     -11.46     100.12     -4.62     142.9     -11.51     100.33     -5.3     117.4
 920.0000         -16.7     30.13     -4.09     -34.33     -4.61     142.54     -4.1     -34.45     -6.9     82.48     -11.47     99.55     -4.62     142.53     -11.53     99.76     -5.31     116.88
 930.0000         -16.68     29.83     -4.09     -34.74     -4.61     142.16     -4.11     -34.85     -6.93     81.77     -11.48     98.97     -4.62     142.16     -11.54     99.16     -5.32     116.33
 940.0000         -16.64     29.51     -4.09     -35.14     -4.61     141.76     -4.11     -35.25     -6.94     81.1     -11.49     98.4     -4.62     141.77     -11.56     98.58     -5.34     115.76
 950.0000         -16.6     29.24     -4.1     -35.52     -4.61     141.4     -4.11     -35.65     -6.96     80.45     -11.5     97.85     -4.62     141.39     -11.57     98.01     -5.35     115.16
 960.0000         -16.57     28.88     -4.1     -35.92     -4.61     141.03     -4.11     -36.04     -6.99     79.82     -11.52     97.3     -4.62     141.01     -11.58     97.42     -5.36     114.55
 970.0000         -16.55     28.48     -4.1     -36.3     -4.61     140.64     -4.12     -36.43     -7.01     79.2     -11.53     96.72     -4.62     140.61     -11.59     96.85     -5.37     113.94
