! Mini-Circuits  
! S2P DATA File Format
! Type: MMIC Amplifier
! Model: ERA-3SM     Reference Data: RDF-1128B
! Note: All S Parameters are in dB deg format
! TEST CONDITIONS: INPUT POWER = -25dBm, Icc = 28mA, Vd = 3.22V @Temperature = +25degC
! 401 Frequency points
!
# MHz S DB R 50
!    FREQ       dB(S11)   PHS(S11)  dB(S21)   PHS(S21)  dB(S12)   PHS(S12)  dB(S22)   PHS(S22) 
   50.000000   -26.960    10.018    22.547   173.388   -25.297    -2.154   -31.666   149.115 
   60.000000   -26.601     5.660    22.555   172.240   -25.144    -4.083   -33.539   148.440 
   70.000000   -28.181     6.325    22.524   171.063   -25.184    -4.854   -34.034   153.315 
   80.000000   -27.461     8.513    22.539   169.779   -25.121    -5.931   -32.603   140.953 
   90.000000   -27.532     1.923    22.519   168.645   -25.225    -4.925   -32.293   145.186 
  100.000000   -27.004     4.916    22.520   167.285   -25.248    -6.994   -32.072   139.655 
  110.000000   -27.005     2.918    22.509   166.236   -25.212    -6.299   -30.536   140.671 
  120.000000   -27.275     5.127    22.497   165.019   -25.172    -7.701   -32.005   137.083 
  130.000000   -27.123     7.387    22.477   163.913   -25.190    -7.575   -31.582   130.748 
  140.000000   -26.904     7.645    22.481   162.719   -25.226    -8.365   -31.109   129.744 
  150.000000   -26.797     6.061    22.469   161.418   -25.241    -9.101   -31.994   124.400 
  160.000000   -26.462     4.610    22.449   160.234   -25.198    -9.431   -30.682   125.763 
  170.000000   -26.987     6.361    22.448   158.997   -25.251    -9.278   -29.918   127.943 
  180.000000   -26.901     7.139    22.451   157.852   -25.332   -11.436   -30.454   123.677 
  190.000000   -26.540     7.220    22.429   156.646   -25.147   -11.252   -29.817   121.017 
  200.000000   -26.620     7.420    22.423   155.486   -25.177   -11.493   -29.616   119.315 
  210.000000   -26.221     8.626    22.420   154.249   -25.230   -12.894   -29.802   117.134 
  220.000000   -26.458     7.254    22.385   153.069   -25.182   -12.869   -29.502   115.361 
  230.000000   -26.235     8.274    22.384   151.924   -25.217   -13.242   -29.448   112.807 
  240.000000   -26.358     8.046    22.357   150.739   -25.181   -14.646   -29.303   106.869 
  250.000000   -26.299     6.798    22.330   149.536   -25.167   -14.644   -28.957   107.895 
  260.000000   -25.852     7.628    22.345   148.365   -25.216   -15.350   -28.808   107.059 
  270.000000   -25.999     5.881    22.326   147.172   -25.176   -15.772   -28.334   104.405 
  280.000000   -25.438     5.749    22.323   145.954   -25.126   -16.451   -28.151   105.261 
  290.000000   -25.845     5.990    22.308   144.766   -25.175   -17.211   -28.169   101.606 
  300.000000   -25.777     5.033    22.271   143.595   -25.149   -17.529   -28.078    99.255 
  310.000000   -25.559     4.713    22.267   142.418   -25.118   -18.184   -27.643    98.244 
  320.000000   -25.671     7.058    22.254   141.243   -25.106   -18.390   -27.862    96.545 
  330.000000   -25.460     4.765    22.217   140.060   -25.129   -18.978   -27.600    93.541 
  340.000000   -25.393     4.282    22.215   138.908   -25.187   -19.701   -27.155    93.357 
  350.000000   -25.258     4.523    22.204   137.697   -25.122   -20.501   -26.893    92.128 
  360.000000   -25.144     4.526    22.187   136.554   -25.108   -20.805   -26.851    90.968 
  370.000000   -25.127     4.484    22.175   135.387   -25.143   -21.556   -26.663    90.140 
  380.000000   -24.990     4.738    22.167   134.229   -25.095   -22.098   -26.572    86.311 
  390.000000   -24.997     3.800    22.135   133.052   -25.084   -23.129   -26.412    85.298 
  400.000000   -24.894     4.879    22.114   131.957   -25.054   -23.508   -26.198    84.033 
  410.000000   -24.739     3.764    22.095   130.722   -25.072   -24.181   -26.171    81.933 
  420.000000   -24.547     2.732    22.066   129.585   -25.046   -24.347   -25.906    81.110 
  430.000000   -24.411     2.486    22.070   128.469   -25.044   -24.976   -25.552    79.996 
  440.000000   -24.312     3.077    22.054   127.280   -25.082   -25.713   -25.445    78.609 
  450.000000   -24.169     0.934    22.035   126.133   -25.018   -26.683   -25.311    77.797 
  460.000000   -24.312     1.289    22.019   124.964   -25.052   -26.985   -25.078    77.098 
  470.000000   -24.242     2.573    21.995   123.843   -25.019   -27.482   -25.008    75.278 
  480.000000   -24.124     3.553    21.966   122.594   -25.051   -27.844   -24.519    73.108 
  490.000000   -23.979     1.991    21.936   121.528   -25.037   -28.658   -24.680    71.471 
  500.000000   -23.856     1.048    21.921   120.367   -25.027   -29.327   -24.538    68.933 
  510.000000   -23.663     0.406    21.898   119.258   -24.986   -29.789   -24.256    70.284 
  520.000000   -23.645    -0.225    21.896   118.061   -25.040   -30.339   -24.020    68.742 
  530.000000   -23.560    -1.927    21.867   116.991   -25.007   -31.041   -23.946    67.603 
  540.000000   -23.325    -2.179    21.852   115.830   -25.005   -31.836   -23.703    66.876 
  550.000000   -23.380    -1.369    21.833   114.747   -24.973   -32.184   -23.710    64.592 
  560.000000   -23.337    -2.316    21.798   113.624   -24.972   -33.134   -23.577    62.982 
  570.000000   -23.315    -2.695    21.783   112.492   -24.972   -33.524   -23.586    61.810 
  580.000000   -23.210    -3.087    21.754   111.309   -24.980   -34.185   -23.447    59.940 
  590.000000   -23.040    -4.439    21.733   110.209   -24.980   -34.636   -23.159    59.472 
  600.000000   -22.891    -3.846    21.727   109.076   -24.967   -35.520   -22.938    58.685 
  610.000000   -22.859    -5.733    21.708   107.957   -24.939   -36.190   -22.868    57.017 
  620.000000   -22.737    -6.742    21.684   106.828   -24.935   -36.579   -22.648    57.049 
  630.000000   -22.755    -6.326    21.672   105.697   -24.961   -37.319   -22.609    55.369 
  640.000000   -22.587    -6.522    21.628   104.618   -24.969   -37.805   -22.572    53.646 
  650.000000   -22.611    -6.804    21.606   103.530   -24.894   -38.561   -22.404    52.590 
  660.000000   -22.528    -7.384    21.585   102.400   -24.899   -38.766   -22.350    51.634 
  670.000000   -22.370    -8.511    21.558   101.286   -24.937   -39.845   -22.220    49.718 
  680.000000   -22.318    -9.896    21.541   100.155   -24.909   -40.130   -21.970    49.590 
  690.000000   -22.158    -9.901    21.535    99.087   -24.867   -40.671   -21.890    48.640 
  700.000000   -22.147   -10.960    21.501    97.973   -24.912   -41.332   -21.836    47.228 
  710.000000   -22.099   -10.967    21.491    96.849   -24.858   -42.105   -21.716    46.485 
  720.000000   -21.984   -11.006    21.465    95.781   -24.862   -42.611   -21.714    44.384 
  730.000000   -22.014   -12.127    21.428    94.661   -24.851   -43.373   -21.566    43.126 
  740.000000   -21.832   -12.570    21.411    93.549   -24.828   -43.925   -21.390    42.226 
  750.000000   -21.698   -14.122    21.396    92.473   -24.835   -44.514   -21.306    41.742 
  760.000000   -21.684   -14.727    21.366    91.368   -24.845   -45.209   -21.175    41.221 
  770.000000   -21.632   -14.807    21.347    90.290   -24.869   -45.902   -21.148    39.227 
  780.000000   -21.440   -15.864    21.318    89.210   -24.813   -46.364   -21.063    37.670 
  790.000000   -21.445   -16.450    21.299    88.133   -24.791   -47.082   -20.952    36.796 
  800.000000   -21.309   -17.480    21.274    86.964   -24.805   -47.701   -20.909    35.150 
  810.000000   -21.140   -18.696    21.245    85.934   -24.804   -48.326   -20.746    34.855 
  820.000000   -21.176   -18.996    21.235    84.821   -24.777   -48.669   -20.685    33.826 
  830.000000   -21.106   -20.008    21.213    83.737   -24.814   -49.507   -20.563    32.534 
  840.000000   -20.927   -21.270    21.191    82.649   -24.755   -50.361   -20.424    31.529 
  850.000000   -20.904   -21.161    21.177    81.560   -24.731   -50.946   -20.381    30.468 
  860.000000   -20.945   -21.938    21.131    80.499   -24.713   -51.481   -20.366    28.993 
  870.000000   -20.874   -22.551    21.114    79.461   -24.737   -51.999   -20.240    28.166 
  880.000000   -20.812   -22.855    21.092    78.378   -24.742   -52.695   -20.150    26.811 
  890.000000   -20.761   -24.108    21.059    77.329   -24.746   -53.353   -20.097    25.430 
  900.000000   -20.658   -25.131    21.047    76.224   -24.762   -53.878   -19.956    25.185 
  910.000000   -20.567   -26.324    21.031    75.127   -24.711   -54.375   -19.884    23.621 
  920.000000   -20.443   -27.574    21.004    74.067   -24.719   -55.078   -19.791    22.619 
  930.000000   -20.437   -28.008    20.984    72.996   -24.698   -55.872   -19.673    21.923 
  940.000000   -20.417   -27.976    20.957    71.967   -24.703   -56.353   -19.659    20.114 
  950.000000   -20.297   -29.330    20.924    70.885   -24.682   -57.292   -19.611    18.965 
  960.000000   -20.315   -29.524    20.896    69.832   -24.680   -57.769   -19.536    18.132 
  970.000000   -20.192   -30.529    20.879    68.723   -24.681   -58.182   -19.465    16.863 
  980.000000   -20.195   -32.232    20.844    67.686   -24.647   -59.019   -19.338    16.173 
  990.000000   -20.092   -32.772    20.838    66.588   -24.653   -59.539   -19.254    15.465 
 1000.000000   -20.019   -33.803    20.812    65.533   -24.624   -60.350   -19.209    13.959 
 1010.000000   -20.020   -35.073    20.784    64.466   -24.636   -60.791   -19.114    13.209 
 1020.000000   -19.924   -35.193    20.769    63.383   -24.655   -61.539   -19.100    11.899 
 1030.000000   -19.916   -36.148    20.727    62.361   -24.615   -62.106   -19.084    10.252 
 1040.000000   -19.884   -37.124    20.710    61.337   -24.595   -62.795   -19.034     9.272 
 1050.000000   -19.812   -37.202    20.682    60.299   -24.626   -63.278   -18.954     8.283 
 1060.000000   -19.729   -38.958    20.651    59.251   -24.612   -64.092   -18.882     7.057 
 1070.000000   -19.707   -39.678    20.645    58.171   -24.593   -64.766   -18.804     6.977 
 1080.000000   -19.639   -40.403    20.625    57.086   -24.612   -65.429   -18.716     5.986 
 1090.000000   -19.556   -42.173    20.592    56.050   -24.598   -66.015   -18.626     4.574 
 1100.000000   -19.591   -42.399    20.573    55.016   -24.570   -66.685   -18.545     3.819 
 1110.000000   -19.521   -43.268    20.543    53.967   -24.545   -67.286   -18.563     2.335 
 1120.000000   -19.463   -44.003    20.518    52.966   -24.547   -67.994   -18.520     1.164 
 1130.000000   -19.447   -45.012    20.495    51.890   -24.544   -68.516   -18.437    -0.067 
 1140.000000   -19.371   -46.278    20.472    50.832   -24.563   -69.089   -18.434    -1.488 
 1150.000000   -19.340   -47.564    20.446    49.838   -24.546   -69.754   -18.319    -1.847 
 1160.000000   -19.332   -48.396    20.438    48.780   -24.525   -70.514   -18.278    -2.997 
 1170.000000   -19.269   -49.326    20.410    47.742   -24.541   -71.100   -18.187    -3.811 
 1180.000000   -19.278   -50.160    20.382    46.688   -24.509   -71.922   -18.126    -4.762 
 1190.000000   -19.230   -50.285    20.358    45.657   -24.480   -72.361   -18.069    -6.101 
 1200.000000   -19.187   -51.392    20.322    44.643   -24.499   -72.953   -18.013    -7.149 
 1210.000000   -19.109   -52.475    20.305    43.583   -24.469   -73.634   -17.990    -8.276 
 1220.000000   -19.104   -53.046    20.279    42.568   -24.488   -74.363   -18.007    -9.411 
 1230.000000   -19.101   -54.659    20.247    41.570   -24.475   -75.000   -17.929   -10.283 
 1240.000000   -19.040   -55.436    20.234    40.512   -24.459   -75.620   -17.856   -11.009 
 1250.000000   -19.070   -56.594    20.212    39.500   -24.472   -76.300   -17.831   -12.242 
 1260.000000   -19.015   -57.890    20.187    38.474   -24.449   -77.028   -17.789   -13.058 
 1270.000000   -18.948   -58.210    20.170    37.418   -24.443   -77.719   -17.697   -14.064 
 1280.000000   -18.926   -59.100    20.138    36.403   -24.438   -78.240   -17.696   -15.553 
 1290.000000   -18.869   -59.772    20.112    35.419   -24.414   -78.915   -17.674   -16.306 
 1300.000000   -18.927   -61.238    20.083    34.364   -24.424   -79.638   -17.620   -17.479 
 1310.000000   -18.897   -62.064    20.055    33.380   -24.426   -80.237   -17.604   -18.590 
 1320.000000   -18.839   -63.387    20.043    32.330   -24.394   -80.869   -17.507   -18.863 
 1330.000000   -18.845   -64.081    20.022    31.349   -24.383   -81.562   -17.506   -20.234 
 1340.000000   -18.825   -65.282    20.000    30.301   -24.405   -82.302   -17.460   -20.972 
 1350.000000   -18.780   -65.706    19.976    29.245   -24.432   -82.813   -17.445   -21.827 
 1360.000000   -18.701   -66.392    19.950    28.258   -24.374   -83.613   -17.399   -23.140 
 1370.000000   -18.708   -67.650    19.916    27.252   -24.367   -84.244   -17.391   -24.444 
 1380.000000   -18.619   -68.692    19.897    26.222   -24.359   -84.890   -17.307   -25.209 
 1390.000000   -18.671   -69.637    19.873    25.219   -24.359   -85.406   -17.318   -26.771 
 1400.000000   -18.612   -71.166    19.845    24.189   -24.351   -86.107   -17.212   -27.002 
 1410.000000   -18.617   -72.119    19.833    23.155   -24.370   -86.742   -17.193   -27.913 
 1420.000000   -18.616   -72.762    19.810    22.168   -24.354   -87.239   -17.136   -28.966 
 1430.000000   -18.588   -74.030    19.788    21.154   -24.325   -88.162   -17.102   -29.874 
 1440.000000   -18.569   -74.287    19.774    20.140   -24.331   -88.610   -17.098   -30.741 
 1450.000000   -18.527   -75.384    19.734    19.125   -24.319   -89.355   -17.070   -31.824 
 1460.000000   -18.548   -76.404    19.711    18.135   -24.318   -90.077   -17.036   -32.962 
 1470.000000   -18.486   -76.979    19.688    17.128   -24.334   -90.782   -17.014   -33.982 
 1480.000000   -18.523   -78.539    19.659    16.093   -24.336   -91.185   -16.962   -34.829 
 1490.000000   -18.485   -79.624    19.637    15.086   -24.308   -91.961   -16.877   -35.687 
 1500.000000   -18.454   -80.536    19.617    14.072   -24.303   -92.472   -16.854   -36.671 
 1510.000000   -18.469   -81.107    19.591    13.079   -24.284   -93.644   -16.877   -37.781 
 1520.000000   -18.541   -81.665    19.580    12.047   -24.294   -94.032   -16.849   -38.445 
 1530.000000   -18.371   -82.271    19.534    10.963   -24.292   -94.577   -16.673   -39.406 
 1540.000000   -18.267   -83.883    19.510     9.993   -24.309   -95.083   -16.641   -40.836 
 1550.000000   -18.266   -85.303    19.484     9.075   -24.277   -95.785   -16.653   -42.000 
 1560.000000   -18.250   -86.885    19.466     8.108   -24.261   -96.507   -16.668   -42.755 
 1570.000000   -18.249   -87.146    19.452     7.113   -24.250   -97.070   -16.633   -43.807 
 1580.000000   -18.249   -88.006    19.417     6.116   -24.245   -97.766   -16.658   -45.104 
 1590.000000   -18.230   -89.029    19.393     5.158   -24.235   -98.649   -16.632   -45.998 
 1600.000000   -18.185   -89.732    19.368     4.129   -24.227   -99.243   -16.585   -47.040 
 1610.000000   -18.179   -91.005    19.334     3.130   -24.235   -99.772   -16.609   -48.243 
 1620.000000   -18.194   -92.791    19.315     2.192   -24.209  -100.456   -16.524   -48.951 
 1630.000000   -18.110   -93.917    19.302     1.148   -24.213  -101.034   -16.539   -49.858 
 1640.000000   -18.180   -94.870    19.279     0.192   -24.199  -101.601   -16.540   -50.857 
 1650.000000   -18.148   -95.790    19.252    -0.819   -24.204  -102.500   -16.498   -51.608 
 1660.000000   -18.138   -96.293    19.238    -1.847   -24.169  -103.077   -16.498   -53.133 
 1670.000000   -18.105   -97.362    19.204    -2.788   -24.177  -103.839   -16.480   -53.904 
 1680.000000   -18.107   -98.393    19.185    -3.779   -24.159  -104.483   -16.488   -54.871 
 1690.000000   -18.129   -98.985    19.162    -4.756   -24.157  -104.973   -16.460   -55.964 
 1700.000000   -18.100  -100.928    19.128    -5.762   -24.161  -105.768   -16.400   -56.935 
 1710.000000   -18.034  -101.664    19.116    -6.756   -24.177  -106.440   -16.343   -57.611 
 1720.000000   -18.079  -102.924    19.094    -7.748   -24.162  -107.001   -16.333   -58.861 
 1730.000000   -18.051  -104.196    19.070    -8.740   -24.140  -107.684   -16.311   -59.680 
 1740.000000   -18.029  -104.897    19.051    -9.710   -24.111  -108.433   -16.261   -60.671 
 1750.000000   -18.012  -105.785    19.023   -10.698   -24.137  -108.857   -16.277   -61.661 
 1760.000000   -17.994  -106.881    18.992   -11.633   -24.137  -109.804   -16.275   -62.854 
 1770.000000   -17.981  -107.747    18.962   -12.679   -24.135  -110.348   -16.253   -63.747 
 1780.000000   -17.959  -108.966    18.942   -13.572   -24.146  -110.962   -16.250   -64.985 
 1790.000000   -17.983  -110.612    18.916   -14.509   -24.094  -111.516   -16.214   -65.694 
 1800.000000   -17.999  -111.486    18.911   -15.567   -24.137  -112.376   -16.204   -66.499 
 1810.000000   -17.991  -112.193    18.884   -16.534   -24.096  -113.008   -16.180   -67.452 
 1820.000000   -18.000  -113.690    18.860   -17.549   -24.102  -113.840   -16.118   -68.194 
 1830.000000   -17.923  -114.064    18.841   -18.506   -24.088  -114.402   -16.111   -69.286 
 1840.000000   -17.912  -115.325    18.805   -19.462   -24.078  -115.061   -16.099   -70.521 
 1850.000000   -17.903  -116.051    18.781   -20.403   -24.071  -115.729   -16.106   -71.333 
 1860.000000   -17.905  -117.453    18.761   -21.367   -24.071  -116.397   -16.067   -72.450 
 1870.000000   -17.924  -118.802    18.734   -22.343   -24.101  -117.025   -16.074   -73.631 
 1880.000000   -17.967  -119.985    18.719   -23.314   -24.065  -117.649   -16.039   -74.080 
 1890.000000   -17.940  -120.709    18.704   -24.296   -24.062  -118.355   -16.046   -75.068 
 1900.000000   -17.884  -121.784    18.678   -25.266   -24.056  -118.834   -16.029   -76.153 
 1910.000000   -17.854  -122.843    18.659   -26.241   -24.029  -119.724   -15.997   -76.712 
 1920.000000   -17.867  -123.862    18.634   -27.235   -24.049  -120.397   -16.019   -77.964 
 1930.000000   -17.920  -124.945    18.610   -28.165   -24.020  -121.044   -16.015   -79.175 
 1940.000000   -17.915  -126.238    18.586   -29.193   -24.026  -121.680   -15.990   -80.110 
 1950.000000   -17.889  -126.957    18.565   -30.122   -24.013  -122.344   -15.984   -81.100 
 1960.000000   -17.888  -128.131    18.536   -31.113   -24.029  -123.164   -15.964   -81.839 
 1970.000000   -17.910  -129.316    18.520   -32.100   -24.004  -123.596   -15.930   -82.539 
 1980.000000   -17.865  -130.244    18.497   -33.016   -24.027  -124.467   -15.926   -83.495 
 1990.000000   -17.876  -131.757    18.477   -34.029   -24.040  -125.062   -15.886   -84.277 
 2000.000000   -17.851  -132.086    18.461   -34.985   -23.986  -125.766   -15.875   -85.175 
 2010.000000   -17.810  -133.286    18.433   -35.913   -24.012  -126.461   -15.880   -86.474 
 2020.000000   -17.840  -134.391    18.408   -36.882   -23.968  -127.084   -15.901   -87.567 
 2030.000000   -17.849  -135.237    18.388   -37.832   -23.939  -127.675   -15.886   -88.315 
 2040.000000   -17.845  -136.503    18.362   -38.794   -23.975  -128.373   -15.856   -89.556 
 2050.000000   -17.837  -137.851    18.331   -39.766   -23.953  -128.979   -15.820   -90.088 
 2060.000000   -17.859  -138.969    18.323   -40.730   -23.996  -129.695   -15.798   -90.977 
 2070.000000   -17.812  -140.071    18.296   -41.758   -23.966  -130.359   -15.781   -91.891 
 2080.000000   -17.764  -141.112    18.278   -42.671   -23.950  -131.221   -15.760   -92.721 
 2090.000000   -17.821  -141.913    18.257   -43.667   -23.931  -131.796   -15.763   -93.875 
 2100.000000   -17.815  -143.123    18.224   -44.585   -23.894  -132.491   -15.774   -94.942 
 2110.000000   -17.831  -144.219    18.205   -45.536   -23.950  -132.934   -15.777   -95.861 
 2120.000000   -17.827  -144.789    18.183   -46.472   -23.936  -133.717   -15.774   -96.672 
