! Mini-Circuits  
! S2P DATA File Format
! Type: MMIC Amplifier
! Model: ERA-3SM     Reference Data: RDF-1128B
! Note: All S Parameters are in dB deg format
! TEST CONDITIONS: INPUT POWER = -25dBm, Icc = 35mA, Vd = 3.25V @Temperature = +25degC
! 401 Frequency points
!
# MHz S DB R 50
!    FREQ       dB(S11)   PHS(S11)  dB(S21)   PHS(S21)  dB(S12)   PHS(S12)  dB(S22)   PHS(S22) 
   50.000000   -36.996    62.731    22.968   173.329   -25.247    -3.068   -23.899   167.067 
   60.000000   -38.566    44.472    22.975   172.141   -25.628    -3.631   -23.935   166.671 
   70.000000   -39.363    84.649    22.944   170.989   -25.480    -3.865   -23.952   167.075 
   80.000000   -37.549    74.350    22.948   169.703   -25.700    -4.699   -24.059   160.746 
   90.000000   -39.553    68.227    22.925   168.501   -25.633    -5.488   -23.703   160.135 
  100.000000   -37.577    64.977    22.935   167.182   -25.655    -6.328   -23.726   158.168 
  110.000000   -36.834    66.682    22.922   166.128   -25.645    -6.267   -23.424   155.688 
  120.000000   -36.233    66.402    22.904   164.881   -25.671    -6.837   -23.741   154.523 
  130.000000   -34.828    64.648    22.902   163.776   -25.645    -7.133   -23.723   152.029 
  140.000000   -34.359    67.225    22.887   162.562   -25.684    -8.114   -23.554   149.893 
  150.000000   -34.269    60.881    22.881   161.262   -25.573    -8.959   -23.663   148.263 
  160.000000   -33.648    56.938    22.872   160.044   -25.540    -8.799   -23.150   146.542 
  170.000000   -33.250    65.065    22.844   158.825   -25.530    -9.754   -22.916   146.431 
  180.000000   -32.740    64.878    22.858   157.654   -25.657   -10.033   -23.131   143.861 
  190.000000   -31.943    66.479    22.836   156.445   -25.575   -10.731   -23.082   141.755 
  200.000000   -31.977    63.670    22.823   155.288   -25.634   -11.533   -23.116   139.460 
  210.000000   -31.100    58.975    22.831   154.037   -25.585   -11.666   -23.156   138.306 
  220.000000   -31.031    63.964    22.793   152.842   -25.554   -12.198   -23.018   136.623 
  230.000000   -30.718    59.921    22.791   151.696   -25.518   -12.884   -22.966   134.875 
  240.000000   -30.419    58.895    22.762   150.501   -25.600   -13.669   -22.828   131.752 
  250.000000   -30.210    59.952    22.734   149.291   -25.614   -13.885   -22.901   130.655 
  260.000000   -29.572    56.469    22.736   148.136   -25.497   -15.078   -22.803   129.967 
  270.000000   -29.903    56.090    22.727   146.927   -25.492   -15.242   -22.599   127.164 
  280.000000   -29.042    53.551    22.723   145.702   -25.526   -15.793   -22.680   126.426 
  290.000000   -29.219    54.448    22.698   144.496   -25.630   -15.776   -22.671   123.994 
  300.000000   -29.013    52.609    22.682   143.310   -25.489   -17.179   -22.506   122.458 
  310.000000   -28.774    51.839    22.666   142.117   -25.595   -17.709   -22.452   120.819 
  320.000000   -28.301    51.063    22.652   140.934   -25.545   -17.793   -22.426   119.890 
  330.000000   -28.242    50.195    22.623   139.748   -25.505   -18.562   -22.340   117.631 
  340.000000   -27.972    49.721    22.603   138.573   -25.471   -19.562   -22.235   115.296 
  350.000000   -27.805    47.530    22.598   137.377   -25.476   -19.650   -22.062   114.428 
  360.000000   -27.460    48.924    22.577   136.233   -25.490   -20.730   -22.100   112.589 
  370.000000   -27.455    47.673    22.562   135.052   -25.479   -20.713   -22.132   111.348 
  380.000000   -26.992    45.409    22.552   133.887   -25.487   -21.572   -21.989   109.008 
  390.000000   -26.935    45.777    22.532   132.673   -25.525   -22.081   -21.923   107.520 
  400.000000   -26.612    45.791    22.506   131.586   -25.466   -22.794   -21.825   106.065 
  410.000000   -26.488    41.804    22.485   130.366   -25.509   -23.082   -21.660   104.646 
  420.000000   -26.197    42.048    22.462   129.184   -25.467   -23.963   -21.648   103.294 
  430.000000   -26.015    41.043    22.447   128.092   -25.406   -24.747   -21.520   101.366 
  440.000000   -25.734    39.502    22.435   126.908   -25.457   -25.047   -21.418    99.761 
  450.000000   -25.598    39.452    22.417   125.773   -25.407   -25.365   -21.457    98.423 
  460.000000   -25.604    38.265    22.393   124.593   -25.462   -26.329   -21.377    97.090 
  470.000000   -25.387    38.788    22.387   123.450   -25.397   -26.785   -21.198    96.063 
  480.000000   -24.938    39.813    22.349   122.205   -25.434   -26.868   -20.982    93.093 
  490.000000   -24.910    35.773    22.319   121.098   -25.388   -27.625   -21.049    92.052 
  500.000000   -24.825    34.573    22.302   119.970   -25.415   -28.460   -20.923    90.429 
  510.000000   -24.591    33.640    22.278   118.855   -25.366   -29.197   -20.819    89.583 
  520.000000   -24.541    32.878    22.265   117.657   -25.360   -29.342   -20.691    88.038 
  530.000000   -24.465    31.479    22.244   116.563   -25.320   -30.512   -20.642    86.601 
  540.000000   -24.125    30.488    22.223   115.439   -25.398   -30.797   -20.644    84.808 
  550.000000   -24.025    30.131    22.208   114.339   -25.377   -31.543   -20.528    83.572 
  560.000000   -24.012    29.504    22.177   113.185   -25.310   -31.964   -20.508    81.709 
  570.000000   -23.908    28.204    22.155   112.058   -25.348   -32.700   -20.470    80.634 
  580.000000   -23.792    27.098    22.128   110.891   -25.341   -33.020   -20.332    79.405 
  590.000000   -23.585    25.755    22.106   109.773   -25.320   -33.748   -20.210    77.794 
  600.000000   -23.380    25.558    22.084   108.673   -25.308   -34.285   -20.119    76.426 
  610.000000   -23.332    23.295    22.073   107.514   -25.286   -35.036   -20.045    75.134 
  620.000000   -23.192    23.675    22.050   106.405   -25.298   -35.592   -20.006    73.780 
  630.000000   -23.148    22.370    22.024   105.254   -25.254   -36.425   -19.950    72.276 
  640.000000   -22.938    21.495    22.005   104.163   -25.300   -36.584   -19.862    71.099 
  650.000000   -22.877    21.271    21.971   103.069   -25.251   -37.435   -19.801    69.496 
  660.000000   -22.764    19.181    21.947   101.959   -25.220   -37.938   -19.723    68.779 
  670.000000   -22.596    18.176    21.925   100.825   -25.239   -38.524   -19.576    67.001 
  680.000000   -22.580    16.949    21.894    99.701   -25.211   -39.285   -19.538    65.736 
  690.000000   -22.351    15.769    21.883    98.617   -25.213   -39.756   -19.407    64.729 
  700.000000   -22.356    15.775    21.856    97.491   -25.214   -40.234   -19.423    63.187 
  710.000000   -22.214    14.677    21.834    96.395   -25.197   -41.009   -19.399    61.858 
  720.000000   -22.059    14.011    21.821    95.308   -25.222   -41.578   -19.353    60.440 
  730.000000   -22.048    13.062    21.780    94.179   -25.205   -42.153   -19.311    58.789 
  740.000000   -21.872    11.244    21.764    93.089   -25.194   -42.558   -19.135    57.802 
  750.000000   -21.769    10.575    21.746    92.007   -25.167   -43.346   -19.100    57.025 
  760.000000   -21.730    10.059    21.712    90.894   -25.196   -43.763   -19.036    55.647 
  770.000000   -21.639     8.871    21.693    89.825   -25.181   -44.550   -18.979    54.212 
  780.000000   -21.431     7.429    21.673    88.719   -25.138   -45.162   -18.922    52.690 
  790.000000   -21.416     6.534    21.645    87.651   -25.112   -45.673   -18.838    51.551 
  800.000000   -21.306     4.630    21.620    86.503   -25.138   -46.451   -18.760    50.418 
  810.000000   -21.129     3.707    21.595    85.449   -25.127   -47.044   -18.680    49.288 
  820.000000   -21.106     3.125    21.568    84.355   -25.113   -47.729   -18.676    47.983 
  830.000000   -21.029     1.821    21.552    83.260   -25.110   -48.278   -18.569    46.797 
  840.000000   -20.900     1.313    21.530    82.198   -25.103   -49.044   -18.554    45.143 
  850.000000   -20.835    -0.063    21.502    81.088   -25.100   -49.559   -18.524    44.047 
  860.000000   -20.822    -0.887    21.481    80.012   -25.068   -50.175   -18.443    42.981 
  870.000000   -20.752    -1.284    21.450    78.959   -25.066   -50.633   -18.411    41.542 
  880.000000   -20.660    -2.793    21.427    77.893   -25.062   -51.454   -18.277    40.699 
  890.000000   -20.606    -3.488    21.405    76.824   -25.045   -51.927   -18.249    39.318 
  900.000000   -20.520    -4.730    21.372    75.736   -25.015   -52.566   -18.195    38.337 
  910.000000   -20.419    -6.478    21.360    74.633   -25.011   -53.154   -18.093    37.079 
  920.000000   -20.320    -7.042    21.331    73.599   -25.001   -53.848   -18.087    35.384 
  930.000000   -20.282    -8.111    21.313    72.520   -25.001   -54.415   -18.070    34.108 
  940.000000   -20.225    -8.567    21.286    71.490   -24.982   -54.879   -17.961    32.920 
  950.000000   -20.127    -9.857    21.256    70.386   -24.967   -55.631   -17.949    31.712 
  960.000000   -20.116   -10.906    21.223    69.353   -24.964   -56.303   -17.880    30.839 
  970.000000   -20.009   -12.257    21.207    68.235   -24.987   -56.938   -17.761    29.989 
  980.000000   -19.999   -13.310    21.172    67.190   -24.965   -57.734   -17.740    28.545 
  990.000000   -19.895   -14.495    21.154    66.132   -24.927   -58.159   -17.673    27.599 
 1000.000000   -19.837   -15.321    21.132    65.034   -24.927   -58.814   -17.658    26.150 
 1010.000000   -19.830   -16.084    21.106    64.000   -24.937   -59.447   -17.622    24.786 
 1020.000000   -19.709   -17.448    21.083    62.906   -24.921   -60.145   -17.613    23.789 
 1030.000000   -19.681   -18.380    21.057    61.861   -24.919   -60.758   -17.577    22.361 
 1040.000000   -19.629   -19.260    21.027    60.836   -24.891   -61.152   -17.563    21.214 
 1050.000000   -19.583   -20.523    21.003    59.791   -24.899   -61.846   -17.442    20.431 
 1060.000000   -19.505   -21.593    20.976    58.746   -24.868   -62.723   -17.396    19.101 
 1070.000000   -19.471   -22.380    20.951    57.725   -24.861   -63.324   -17.387    18.343 
 1080.000000   -19.396   -23.565    20.938    56.592   -24.891   -63.845   -17.286    17.383 
 1090.000000   -19.322   -24.507    20.904    55.576   -24.835   -64.476   -17.254    15.676 
 1100.000000   -19.347   -25.590    20.877    54.564   -24.851   -64.997   -17.215    14.462 
 1110.000000   -19.270   -26.786    20.862    53.479   -24.852   -65.627   -17.199    13.507 
 1120.000000   -19.211   -27.316    20.829    52.479   -24.818   -66.429   -17.192    12.245 
 1130.000000   -19.224   -29.134    20.806    51.419   -24.829   -67.045   -17.093    11.148 
 1140.000000   -19.128   -30.293    20.783    50.370   -24.805   -67.629   -17.068     9.959 
 1150.000000   -19.101   -31.262    20.750    49.360   -24.805   -68.371   -17.037     8.916 
 1160.000000   -19.110   -32.529    20.739    48.342   -24.788   -68.962   -16.964     7.767 
 1170.000000   -19.017   -32.993    20.717    47.272   -24.796   -69.510   -16.945     6.644 
 1180.000000   -19.007   -33.912    20.687    46.211   -24.762   -70.247   -16.919     5.534 
 1190.000000   -18.962   -34.813    20.659    45.217   -24.744   -70.877   -16.854     4.364 
 1200.000000   -18.908   -35.761    20.633    44.179   -24.777   -71.421   -16.800     3.253 
 1210.000000   -18.851   -37.007    20.609    43.125   -24.754   -72.213   -16.788     2.026 
 1220.000000   -18.840   -38.306    20.583    42.107   -24.728   -72.509   -16.761     1.318 
 1230.000000   -18.833   -39.103    20.552    41.092   -24.712   -73.507   -16.731     0.050 
 1240.000000   -18.779   -40.327    20.526    40.087   -24.729   -74.052   -16.693    -0.985 
 1250.000000   -18.806   -41.588    20.510    39.049   -24.719   -74.635   -16.667    -2.026 
 1260.000000   -18.733   -42.094    20.484    38.025   -24.704   -75.396   -16.676    -3.312 
 1270.000000   -18.678   -43.478    20.458    36.995   -24.701   -75.948   -16.603    -4.373 
 1280.000000   -18.657   -44.368    20.443    35.957   -24.680   -76.815   -16.570    -5.585 
 1290.000000   -18.568   -45.001    20.405    34.982   -24.678   -77.294   -16.581    -6.605 
 1300.000000   -18.668   -47.044    20.379    33.894   -24.674   -77.861   -16.505    -7.465 
 1310.000000   -18.624   -47.439    20.358    32.943   -24.636   -78.538   -16.479    -8.505 
 1320.000000   -18.570   -48.792    20.329    31.890   -24.657   -79.180   -16.433    -9.407 
 1330.000000   -18.589   -49.770    20.311    30.912   -24.625   -79.951   -16.414   -10.500 
 1340.000000   -18.540   -50.250    20.287    29.883   -24.618   -80.617   -16.410   -11.625 
 1350.000000   -18.485   -51.157    20.263    28.840   -24.624   -81.192   -16.432   -12.705 
 1360.000000   -18.414   -52.232    20.239    27.840   -24.622   -81.864   -16.361   -13.666 
 1370.000000   -18.399   -53.338    20.208    26.811   -24.614   -82.490   -16.369   -15.063 
 1380.000000   -18.362   -54.986    20.182    25.805   -24.603   -83.123   -16.293   -15.893 
 1390.000000   -18.405   -55.972    20.162    24.814   -24.602   -83.778   -16.267   -17.073 
 1400.000000   -18.348   -57.158    20.135    23.770   -24.584   -84.486   -16.231   -17.863 
 1410.000000   -18.361   -58.286    20.111    22.767   -24.586   -85.060   -16.201   -18.892 
 1420.000000   -18.333   -58.784    20.096    21.757   -24.566   -85.804   -16.177   -19.895 
 1430.000000   -18.309   -59.721    20.070    20.742   -24.547   -86.477   -16.159   -21.125 
 1440.000000   -18.289   -60.797    20.049    19.745   -24.546   -87.014   -16.155   -22.037 
 1450.000000   -18.255   -61.836    20.022    18.723   -24.554   -87.647   -16.114   -22.961 
 1460.000000   -18.253   -62.758    19.991    17.745   -24.538   -88.433   -16.103   -24.246 
 1470.000000   -18.249   -64.206    19.968    16.714   -24.533   -88.974   -16.050   -24.907 
 1480.000000   -18.241   -64.929    19.941    15.703   -24.543   -89.787   -16.000   -25.946 
 1490.000000   -18.215   -66.130    19.906    14.675   -24.534   -90.195   -15.967   -27.175 
 1500.000000   -18.190   -67.396    19.890    13.672   -24.474   -91.006   -15.927   -28.106 
 1510.000000   -18.190   -67.939    19.870    12.688   -24.496   -91.575   -15.972   -29.175 
 1520.000000   -18.246   -68.738    19.854    11.673   -24.510   -92.313   -15.901   -29.553 
 1530.000000   -18.054   -69.025    19.815    10.571   -24.509   -92.932   -15.789   -31.011 
 1540.000000   -17.968   -71.010    19.775     9.647   -24.492   -93.483   -15.789   -32.620 
 1550.000000   -18.000   -72.522    19.756     8.701   -24.459   -94.037   -15.803   -33.729 
 1560.000000   -17.980   -73.497    19.736     7.754   -24.473   -94.857   -15.838   -34.724 
 1570.000000   -17.974   -74.487    19.717     6.763   -24.438   -95.214   -15.809   -35.789 
 1580.000000   -17.991   -75.337    19.697     5.727   -24.432   -96.087   -15.811   -36.773 
 1590.000000   -17.959   -76.083    19.667     4.779   -24.454   -96.801   -15.807   -37.910 
 1600.000000   -17.931   -77.608    19.639     3.762   -24.456   -97.424   -15.759   -38.726 
 1610.000000   -17.911   -78.570    19.609     2.779   -24.411   -98.100   -15.759   -39.768 
 1620.000000   -17.929   -80.216    19.581     1.815   -24.430   -98.776   -15.722   -41.032 
 1630.000000   -17.896   -81.584    19.567     0.797   -24.419   -99.450   -15.723   -41.720 
 1640.000000   -17.934   -82.111    19.544    -0.142   -24.378  -100.061   -15.737   -42.827 
 1650.000000   -17.899   -83.106    19.521    -1.141   -24.380  -100.751   -15.733   -43.906 
 1660.000000   -17.890   -84.215    19.501    -2.140   -24.362  -101.122   -15.731   -45.093 
 1670.000000   -17.857   -85.079    19.477    -3.124   -24.363  -101.938   -15.691   -45.899 
 1680.000000   -17.855   -86.023    19.447    -4.099   -24.374  -102.594   -15.708   -46.921 
 1690.000000   -17.889   -87.150    19.427    -5.085   -24.365  -103.321   -15.667   -47.727 
 1700.000000   -17.861   -88.506    19.401    -6.089   -24.368  -103.959   -15.626   -48.842 
 1710.000000   -17.817   -89.420    19.369    -7.063   -24.351  -104.662   -15.613   -49.978 
 1720.000000   -17.850   -90.885    19.355    -8.051   -24.329  -105.330   -15.579   -50.918 
 1730.000000   -17.818   -91.480    19.331    -9.035   -24.339  -106.045   -15.584   -52.080 
 1740.000000   -17.814   -92.698    19.305   -10.000   -24.325  -106.719   -15.573   -53.251 
 1750.000000   -17.797   -93.805    19.283   -10.992   -24.300  -107.048   -15.554   -53.981 
 1760.000000   -17.768   -94.662    19.252   -11.933   -24.298  -108.110   -15.553   -55.183 
 1770.000000   -17.773   -96.001    19.221   -12.952   -24.274  -108.428   -15.528   -55.991 
 1780.000000   -17.742   -97.472    19.202   -13.872   -24.296  -109.233   -15.518   -57.102 
 1790.000000   -17.787   -98.653    19.177   -14.820   -24.272  -109.888   -15.522   -58.128 
 1800.000000   -17.813   -99.554    19.162   -15.857   -24.269  -110.604   -15.517   -58.988 
 1810.000000   -17.779  -100.342    19.142   -16.818   -24.265  -111.166   -15.472   -59.758 
 1820.000000   -17.806  -101.443    19.119   -17.819   -24.253  -112.001   -15.473   -60.902 
 1830.000000   -17.718  -102.420    19.094   -18.745   -24.270  -112.507   -15.462   -61.997 
 1840.000000   -17.724  -103.639    19.067   -19.733   -24.261  -112.996   -15.425   -63.017 
 1850.000000   -17.713  -104.304    19.035   -20.698   -24.251  -113.854   -15.433   -64.120 
 1860.000000   -17.742  -106.407    19.013   -21.631   -24.234  -114.235   -15.386   -64.926 
 1870.000000   -17.731  -107.204    18.994   -22.617   -24.219  -115.297   -15.405   -65.976 
 1880.000000   -17.788  -108.151    18.965   -23.567   -24.228  -115.866   -15.394   -66.880 
 1890.000000   -17.748  -109.198    18.956   -24.562   -24.218  -116.565   -15.389   -67.671 
 1900.000000   -17.698  -109.860    18.934   -25.526   -24.201  -117.154   -15.391   -68.927 
 1910.000000   -17.681  -111.206    18.907   -26.480   -24.168  -117.837   -15.388   -69.790 
 1920.000000   -17.696  -112.443    18.885   -27.483   -24.200  -118.580   -15.397   -70.764 
 1930.000000   -17.763  -113.319    18.862   -28.420   -24.176  -119.280   -15.391   -72.032 
 1940.000000   -17.752  -114.798    18.832   -29.412   -24.157  -119.749   -15.368   -72.952 
 1950.000000   -17.744  -115.905    18.815   -30.337   -24.177  -120.491   -15.339   -73.680 
 1960.000000   -17.719  -116.412    18.790   -31.353   -24.151  -121.405   -15.340   -74.599 
 1970.000000   -17.728  -117.809    18.758   -32.313   -24.159  -121.775   -15.332   -75.555 
 1980.000000   -17.705  -118.919    18.744   -33.230   -24.154  -122.498   -15.302   -76.418 
 1990.000000   -17.727  -119.788    18.725   -34.238   -24.136  -123.207   -15.291   -77.423 
 2000.000000   -17.701  -120.723    18.700   -35.190   -24.104  -123.645   -15.318   -78.430 
 2010.000000   -17.674  -122.084    18.683   -36.093   -24.111  -124.735   -15.286   -79.453 
 2020.000000   -17.691  -122.955    18.656   -37.069   -24.138  -125.126   -15.315   -80.678 
 2030.000000   -17.712  -124.279    18.633   -38.037   -24.146  -125.657   -15.300   -81.312 
 2040.000000   -17.727  -125.433    18.609   -39.003   -24.118  -126.711   -15.278   -82.348 
 2050.000000   -17.704  -126.595    18.576   -39.963   -24.098  -127.155   -15.252   -83.175 
 2060.000000   -17.726  -127.833    18.558   -40.931   -24.099  -127.736   -15.252   -84.233 
 2070.000000   -17.698  -128.769    18.540   -41.917   -24.089  -128.417   -15.223   -85.027 
 2080.000000   -17.653  -129.539    18.516   -42.879   -24.061  -129.015   -15.232   -86.167 
 2090.000000   -17.700  -130.841    18.496   -43.821   -24.054  -129.904   -15.209   -87.147 
 2100.000000   -17.704  -131.980    18.478   -44.740   -24.050  -130.502   -15.221   -88.102 
 2110.000000   -17.711  -132.864    18.446   -45.712   -24.065  -131.186   -15.224   -89.189 
 2120.000000   -17.728  -134.125    18.427   -46.669   -24.053  -131.671   -15.224   -89.801 
