! Mini-Circuits  
! S2P DATA File Format
! Type: MMIC Amplifier
! Model: ERA-3SM     Reference Data: RDF-1128B
! Note: All S Parameters are in dB deg format
! TEST CONDITIONS: INPUT POWER = -25dBm, Icc = 42mA, Vd = 3.45V @Temperature = -45degC
! 401 Frequency points
!
# MHz S DB R 50
!    FREQ       dB(S11)   PHS(S11)  dB(S21)   PHS(S21)  dB(S12)   PHS(S12)  dB(S22)   PHS(S22) 
   50.000000   -33.292   141.896    23.318   173.306   -25.897    -2.599   -20.707   168.213 
   60.000000   -36.127   149.208    23.325   172.073   -26.025    -3.160   -20.956   166.050 
   70.000000   -32.496   149.880    23.297   170.921   -26.031    -5.089   -21.139   166.612 
   80.000000   -33.273   137.323    23.303   169.613   -25.909    -4.840   -21.195   162.788 
   90.000000   -34.367   146.552    23.269   168.412   -25.852    -5.869   -21.083   162.117 
  100.000000   -34.250   130.904    23.277   167.078   -25.884    -6.755   -21.284   160.353 
  110.000000   -34.891   125.736    23.263   166.021   -25.904    -6.585   -20.976   158.562 
  120.000000   -34.088   120.370    23.252   164.748   -25.958    -6.528   -21.266   157.495 
  130.000000   -33.285   112.345    23.255   163.608   -25.943    -7.850   -21.146   154.343 
  140.000000   -33.031   108.231    23.252   162.388   -25.903    -8.375   -21.225   153.326 
  150.000000   -33.000   101.497    23.245   161.074   -25.888    -8.057   -21.484   151.042 
  160.000000   -32.454    95.216    23.234   159.829   -25.944    -9.242   -21.195   149.958 
  170.000000   -31.788    98.315    23.205   158.595   -25.852    -9.381   -21.065   149.045 
  180.000000   -31.058    95.701    23.208   157.408   -25.937   -10.493   -21.209   147.504 
  190.000000   -30.112    93.224    23.187   156.173   -25.909   -11.133   -21.074   145.794 
  200.000000   -30.017    91.440    23.178   154.991   -25.812   -11.758   -21.106   144.419 
  210.000000   -29.359    85.927    23.186   153.729   -25.860   -12.079   -21.099   143.241 
  220.000000   -29.101    86.341    23.151   152.504   -25.917   -11.869   -20.920   141.743 
  230.000000   -28.871    83.762    23.153   151.344   -25.842   -12.988   -20.972   140.281 
  240.000000   -28.266    84.608    23.129   150.120   -25.915   -13.922   -20.891   137.630 
  250.000000   -28.157    84.728    23.097   148.891   -25.810   -14.874   -20.897   136.487 
  260.000000   -27.556    82.617    23.096   147.704   -25.808   -15.282   -20.862   135.926 
  270.000000   -27.525    83.860    23.079   146.496   -25.828   -15.702   -20.596   133.621 
  280.000000   -27.073    79.463    23.075   145.249   -25.764   -16.668   -20.511   132.564 
  290.000000   -27.013    80.956    23.054   144.038   -25.851   -16.720   -20.489   131.284 
  300.000000   -26.844    79.103    23.034   142.857   -25.806   -17.257   -20.322   129.587 
  310.000000   -26.617    77.133    23.029   141.607   -25.767   -17.967   -20.243   128.161 
  320.000000   -26.209    77.677    23.017   140.421   -25.799   -18.823   -20.323   126.749 
  330.000000   -26.169    76.854    22.989   139.205   -25.775   -19.083   -20.220   125.031 
  340.000000   -25.995    75.803    22.972   138.012   -25.837   -19.931   -20.172   123.464 
  350.000000   -25.689    75.150    22.954   136.829   -25.782   -19.912   -20.041   121.970 
  360.000000   -25.411    74.358    22.933   135.643   -25.781   -20.937   -19.925   120.765 
  370.000000   -25.444    73.104    22.918   134.451   -25.754   -21.555   -19.914   119.438 
  380.000000   -25.137    70.755    22.911   133.277   -25.729   -22.174   -19.839   117.218 
  390.000000   -25.070    69.970    22.893   132.045   -25.738   -22.756   -19.720   115.891 
  400.000000   -24.872    69.204    22.872   130.918   -25.725   -23.010   -19.715   114.398 
  410.000000   -24.832    66.513    22.859   129.684   -25.721   -23.578   -19.656   112.850 
  420.000000   -24.603    65.602    22.834   128.514   -25.738   -24.228   -19.632   111.479 
  430.000000   -24.376    64.699    22.815   127.393   -25.681   -25.162   -19.561   109.371 
  440.000000   -24.150    63.583    22.794   126.202   -25.703   -25.586   -19.477   107.915 
  450.000000   -24.182    62.117    22.782   125.031   -25.699   -26.190   -19.405   106.629 
  460.000000   -24.133    60.907    22.758   123.827   -25.680   -26.858   -19.349   105.422 
  470.000000   -23.960    60.456    22.744   122.710   -25.671   -27.262   -19.249   104.213 
  480.000000   -23.587    62.542    22.745   121.395   -25.736   -27.922   -18.836   102.583 
  490.000000   -23.573    57.655    22.688   120.266   -25.629   -28.383   -19.170   100.207 
  500.000000   -23.471    56.507    22.677   119.103   -25.603   -28.887   -19.069    98.276 
  510.000000   -23.376    54.531    22.652   117.982   -25.660   -29.537   -19.002    97.444 
  520.000000   -23.303    54.475    22.634   116.773   -25.643   -30.597   -18.926    95.475 
  530.000000   -23.333    52.542    22.609   115.680   -25.634   -30.896   -18.821    94.407 
  540.000000   -23.161    49.998    22.590   114.527   -25.625   -31.603   -18.769    92.573 
  550.000000   -23.019    50.100    22.574   113.398   -25.611   -31.941   -18.699    91.199 
  560.000000   -23.115    48.249    22.554   112.242   -25.576   -32.600   -18.640    89.595 
  570.000000   -23.016    47.258    22.535   111.057   -25.599   -33.587   -18.709    88.054 
  580.000000   -22.939    46.215    22.507   109.873   -25.570   -33.914   -18.620    86.553 
  590.000000   -22.839    44.364    22.488   108.740   -25.558   -34.701   -18.503    84.913 
  600.000000   -22.606    43.594    22.465   107.631   -25.540   -35.189   -18.450    83.100 
  610.000000   -22.652    41.737    22.442   106.444   -25.528   -35.762   -18.380    81.719 
  620.000000   -22.537    40.779    22.415   105.315   -25.535   -36.615   -18.252    80.767 
  630.000000   -22.543    39.326    22.399   104.154   -25.523   -37.222   -18.246    78.981 
  640.000000   -22.395    37.811    22.374   103.035   -25.505   -37.424   -18.158    77.700 
  650.000000   -22.338    36.656    22.349   101.933   -25.477   -38.258   -18.105    76.032 
  660.000000   -22.227    34.941    22.327   100.784   -25.495   -38.812   -18.106    74.793 
  670.000000   -22.127    33.244    22.306    99.650   -25.501   -39.618   -18.021    73.019 
  680.000000   -22.137    31.476    22.278    98.489   -25.509   -39.969   -18.007    71.462 
  690.000000   -21.835    30.442    22.255    97.389   -25.448   -40.853   -17.949    70.241 
  700.000000   -21.902    29.659    22.228    96.257   -25.462   -41.518   -17.907    68.889 
  710.000000   -21.784    28.111    22.206    95.130   -25.450   -42.028   -17.850    67.625 
  720.000000   -21.605    26.935    22.194    94.001   -25.410   -42.789   -17.796    66.303 
  730.000000   -21.608    25.209    22.164    92.866   -25.414   -43.222   -17.784    64.584 
  740.000000   -21.407    23.717    22.147    91.741   -25.440   -43.781   -17.710    63.193 
  750.000000   -21.301    22.661    22.120    90.658   -25.392   -44.440   -17.656    62.402 
  760.000000   -21.232    21.568    22.082    89.511   -25.407   -45.142   -17.618    61.007 
  770.000000   -21.151    20.442    22.064    88.431   -25.403   -45.718   -17.578    59.579 
  780.000000   -20.989    18.373    22.048    87.307   -25.370   -46.254   -17.530    58.295 
  790.000000   -20.942    17.308    22.027    86.206   -25.353   -47.007   -17.503    56.858 
  800.000000   -20.815    15.585    22.002    85.053   -25.331   -47.670   -17.470    55.450 
  810.000000   -20.650    14.385    21.979    83.960   -25.369   -48.409   -17.405    54.404 
  820.000000   -20.597    14.067    21.950    82.855   -25.315   -48.967   -17.430    52.950 
  830.000000   -20.487    12.753    21.926    81.741   -25.309   -49.487   -17.326    51.708 
  840.000000   -20.379    11.338    21.901    80.633   -25.311   -50.245   -17.241    50.518 
  850.000000   -20.346    10.278    21.880    79.541   -25.297   -50.797   -17.217    49.347 
  860.000000   -20.317     9.718    21.855    78.430   -25.321   -51.495   -17.144    48.433 
  870.000000   -20.248     8.454    21.834    77.350   -25.283   -52.053   -17.101    47.143 
  880.000000   -20.158     7.333    21.809    76.252   -25.251   -52.657   -17.077    45.649 
  890.000000   -20.105     6.616    21.791    75.194   -25.226   -53.433   -17.015    44.489 
  900.000000   -20.004     5.215    21.757    74.078   -25.228   -53.903   -16.956    43.325 
  910.000000   -19.927     3.929    21.733    72.987   -25.226   -54.667   -16.906    41.898 
  920.000000   -19.868     2.612    21.708    71.910   -25.229   -55.458   -16.833    40.757 
  930.000000   -19.832     1.368    21.682    70.812   -25.207   -55.859   -16.819    39.401 
  940.000000   -19.747     0.886    21.659    69.761   -25.214   -56.638   -16.728    38.101 
  950.000000   -19.698    -0.883    21.637    68.649   -25.191   -57.199   -16.706    37.043 
  960.000000   -19.677    -1.465    21.608    67.567   -25.157   -57.955   -16.676    35.785 
  970.000000   -19.584    -2.977    21.592    66.446   -25.144   -58.530   -16.573    34.822 
  980.000000   -19.580    -4.193    21.557    65.389   -25.151   -59.192   -16.569    33.319 
  990.000000   -19.467    -5.342    21.535    64.295   -25.141   -59.786   -16.539    32.304 
 1000.000000   -19.417    -6.535    21.507    63.229   -25.116   -60.561   -16.502    31.105 
 1010.000000   -19.421    -7.529    21.481    62.144   -25.132   -61.128   -16.440    29.876 
 1020.000000   -19.290    -8.845    21.460    61.031   -25.094   -61.741   -16.432    28.752 
 1030.000000   -19.264   -10.204    21.436    59.966   -25.105   -62.411   -16.408    27.428 
 1040.000000   -19.235   -11.386    21.416    58.922   -25.126   -62.948   -16.419    26.215 
 1050.000000   -19.140   -12.424    21.387    57.854   -25.060   -63.711   -16.361    25.023 
 1060.000000   -19.062   -13.923    21.360    56.784   -25.077   -64.179   -16.328    23.677 
 1070.000000   -19.014   -14.709    21.336    55.741   -25.066   -65.099   -16.322    22.813 
 1080.000000   -18.941   -15.382    21.320    54.644   -25.065   -65.737   -16.284    21.849 
 1090.000000   -18.791   -17.075    21.280    53.531   -25.029   -66.266   -16.159    20.600 
 1100.000000   -18.829   -18.179    21.255    52.515   -25.035   -66.944   -16.164    19.366 
 1110.000000   -18.767   -19.165    21.237    51.440   -25.004   -67.668   -16.141    18.385 
 1120.000000   -18.691   -20.471    21.215    50.424   -25.023   -68.342   -16.140    17.255 
 1130.000000   -18.668   -21.710    21.193    49.319   -24.991   -69.007   -16.125    15.764 
 1140.000000   -18.566   -22.841    21.173    48.258   -24.952   -69.666   -16.101    14.711 
 1150.000000   -18.538   -24.086    21.138    47.219   -24.955   -70.408   -16.091    13.646 
 1160.000000   -18.524   -24.837    21.117    46.182   -24.977   -71.084   -16.075    12.410 
 1170.000000   -18.434   -25.718    21.095    45.113   -24.965   -71.506   -15.996    11.586 
 1180.000000   -18.438   -26.648    21.063    44.025   -24.970   -72.181   -15.990    10.400 
 1190.000000   -18.363   -27.360    21.038    43.017   -24.923   -73.085   -15.932     9.231 
 1200.000000   -18.307   -28.570    21.015    41.955   -24.942   -73.584   -15.869     8.264 
 1210.000000   -18.252   -29.926    20.996    40.871   -24.914   -74.101   -15.884     6.979 
 1220.000000   -18.244   -30.969    20.974    39.846   -24.883   -74.850   -15.891     5.981 
 1230.000000   -18.228   -31.891    20.942    38.822   -24.885   -75.581   -15.874     4.948 
 1240.000000   -18.179   -32.914    20.914    37.783   -24.861   -76.086   -15.862     3.723 
 1250.000000   -18.194   -33.844    20.890    36.738   -24.863   -76.731   -15.825     2.698 
 1260.000000   -18.161   -34.835    20.862    35.698   -24.860   -77.553   -15.793     1.590 
 1270.000000   -18.097   -36.216    20.847    34.655   -24.831   -78.252   -15.751     0.381 
 1280.000000   -18.078   -37.186    20.823    33.589   -24.866   -78.935   -15.720    -0.722 
 1290.000000   -18.019   -38.291    20.800    32.585   -24.834   -79.709   -15.706    -1.794 
 1300.000000   -18.124   -39.724    20.770    31.497   -24.825   -80.300   -15.679    -2.992 
 1310.000000   -18.074   -40.220    20.747    30.501   -24.827   -80.720   -15.647    -4.061 
 1320.000000   -18.049   -41.750    20.719    29.421   -24.797   -81.701   -15.617    -5.103 
 1330.000000   -18.038   -42.357    20.696    28.455   -24.797   -82.269   -15.595    -6.300 
 1340.000000   -18.015   -43.433    20.673    27.399   -24.764   -82.957   -15.556    -7.050 
 1350.000000   -17.955   -44.420    20.648    26.329   -24.759   -83.415   -15.559    -8.200 
 1360.000000   -17.895   -45.399    20.625    25.310   -24.787   -84.328   -15.508    -9.206 
 1370.000000   -17.901   -46.943    20.601    24.254   -24.764   -84.714   -15.489   -10.525 
 1380.000000   -17.868   -48.496    20.575    23.238   -24.766   -85.631   -15.450   -11.680 
 1390.000000   -17.905   -49.297    20.557    22.219   -24.718   -86.211   -15.455   -12.996 
 1400.000000   -17.866   -50.692    20.529    21.146   -24.709   -87.059   -15.393   -13.749 
 1410.000000   -17.862   -51.513    20.504    20.124   -24.721   -87.556   -15.399   -14.926 
 1420.000000   -17.811   -52.194    20.480    19.119   -24.719   -88.152   -15.337   -15.894 
 1430.000000   -17.832   -53.346    20.455    18.085   -24.731   -89.041   -15.329   -16.984 
 1440.000000   -17.800   -54.324    20.437    17.072   -24.671   -89.603   -15.302   -17.776 
 1450.000000   -17.765   -55.596    20.412    16.053   -24.665   -90.318   -15.257   -18.774 
 1460.000000   -17.784   -56.667    20.388    15.001   -24.671   -91.085   -15.237   -20.043 
 1470.000000   -17.739   -57.825    20.365    13.999   -24.644   -91.526   -15.246   -21.059 
 1480.000000   -17.783   -58.749    20.343    12.979   -24.631   -92.326   -15.206   -21.980 
 1490.000000   -17.783   -59.639    20.309    11.917   -24.630   -93.123   -15.171   -22.962 
 1500.000000   -17.685   -60.556    20.279    10.888   -24.638   -93.571   -15.118   -24.149 
 1510.000000   -17.692   -62.041    20.262     9.914   -24.632   -94.389   -15.144   -25.238 
 1520.000000   -17.776   -63.026    20.254     8.943   -24.613   -95.100   -15.158   -25.844 
 1530.000000   -17.788   -63.301    20.236     7.802   -24.623   -96.040   -15.098   -26.344 
 1540.000000   -17.523   -63.498    20.181     6.614   -24.670   -96.396   -14.908   -28.054 
 1550.000000   -17.489   -65.781    20.142     5.758   -24.616   -96.871   -14.969   -29.651 
 1560.000000   -17.516   -67.370    20.122     4.843   -24.563   -97.653   -15.017   -30.482 
 1570.000000   -17.534   -68.402    20.107     3.844   -24.577   -98.242   -15.017   -31.550 
 1580.000000   -17.543   -69.288    20.089     2.812   -24.570   -98.877   -15.008   -32.395 
 1590.000000   -17.540   -70.440    20.071     1.835   -24.535   -99.485   -15.015   -33.434 
 1600.000000   -17.502   -71.549    20.044     0.773   -24.562  -100.484   -15.008   -34.540 
 1610.000000   -17.468   -72.420    20.012    -0.246   -24.527  -101.229   -14.987   -35.520 
 1620.000000   -17.492   -74.250    19.985    -1.230   -24.526  -101.669   -14.988   -36.990 
 1630.000000   -17.457   -75.290    19.966    -2.237   -24.498  -102.312   -15.012   -37.811 
 1640.000000   -17.480   -76.089    19.938    -3.223   -24.510  -103.165   -15.006   -38.723 
 1650.000000   -17.436   -77.368    19.914    -4.217   -24.470  -103.864   -14.998   -39.755 
 1660.000000   -17.441   -78.450    19.901    -5.246   -24.448  -104.374   -15.007   -40.998 
 1670.000000   -17.398   -79.706    19.876    -6.229   -24.462  -105.024   -14.973   -41.795 
 1680.000000   -17.391   -80.880    19.857    -7.236   -24.463  -105.811   -15.004   -42.961 
 1690.000000   -17.413   -81.700    19.836    -8.236   -24.451  -106.684   -15.010   -44.021 
 1700.000000   -17.394   -83.063    19.811    -9.291   -24.453  -107.121   -14.969   -45.074 
 1710.000000   -17.315   -84.072    19.779   -10.281   -24.451  -108.032   -14.964   -46.249 
 1720.000000   -17.310   -85.081    19.754   -11.292   -24.449  -108.594   -14.943   -47.416 
 1730.000000   -17.287   -86.460    19.730   -12.253   -24.382  -109.236   -14.948   -48.347 
 1740.000000   -17.262   -87.595    19.704   -13.277   -24.396  -110.035   -14.929   -49.486 
 1750.000000   -17.249   -88.861    19.689   -14.268   -24.407  -110.576   -14.945   -50.475 
 1760.000000   -17.230   -89.850    19.665   -15.274   -24.401  -111.349   -14.917   -51.346 
 1770.000000   -17.183   -91.001    19.632   -16.298   -24.384  -111.999   -14.938   -52.634 
 1780.000000   -17.157   -92.170    19.615   -17.214   -24.381  -112.615   -14.949   -53.877 
 1790.000000   -17.193   -93.605    19.587   -18.179   -24.337  -113.406   -14.956   -54.953 
 1800.000000   -17.187   -94.223    19.569   -19.221   -24.351  -114.192   -14.978   -55.971 
 1810.000000   -17.165   -94.882    19.545   -20.209   -24.358  -114.868   -14.939   -56.581 
 1820.000000   -17.170   -96.053    19.521   -21.252   -24.348  -115.693   -14.922   -57.547 
 1830.000000   -17.082   -97.083    19.497   -22.208   -24.357  -116.178   -14.911   -58.572 
 1840.000000   -17.070   -98.134    19.474   -23.203   -24.344  -116.868   -14.877   -59.613 
 1850.000000   -17.055   -99.224    19.450   -24.171   -24.309  -117.277   -14.897   -60.668 
 1860.000000   -17.097  -100.748    19.428   -25.164   -24.332  -118.252   -14.881   -61.765 
 1870.000000   -17.105  -101.292    19.408   -26.123   -24.300  -118.865   -14.891   -62.771 
 1880.000000   -17.168  -102.347    19.380   -27.100   -24.316  -119.585   -14.895   -63.653 
 1890.000000   -17.102  -102.930    19.360   -28.083   -24.319  -120.202   -14.906   -64.556 
 1900.000000   -17.051  -103.815    19.342   -29.107   -24.284  -120.796   -14.880   -65.508 
 1910.000000   -17.040  -105.215    19.311   -30.053   -24.266  -121.683   -14.862   -66.385 
 1920.000000   -17.106  -106.206    19.291   -31.065   -24.245  -122.363   -14.897   -67.395 
 1930.000000   -17.170  -107.046    19.273   -32.029   -24.249  -122.987   -14.870   -68.399 
 1940.000000   -17.180  -108.407    19.248   -33.039   -24.227  -123.423   -14.872   -69.481 
 1950.000000   -17.184  -109.289    19.230   -33.991   -24.223  -124.341   -14.866   -70.233 
 1960.000000   -17.173  -109.838    19.208   -34.986   -24.207  -125.048   -14.860   -71.185 
 1970.000000   -17.233  -111.022    19.178   -35.980   -24.212  -125.812   -14.869   -72.037 
 1980.000000   -17.197  -111.886    19.155   -36.931   -24.194  -126.514   -14.834   -72.865 
 1990.000000   -17.242  -112.945    19.137   -37.945   -24.188  -127.041   -14.812   -73.645 
 2000.000000   -17.263  -113.916    19.117   -38.940   -24.179  -127.710   -14.831   -74.556 
 2010.000000   -17.244  -114.822    19.102   -39.877   -24.198  -128.661   -14.798   -75.401 
 2020.000000   -17.274  -116.070    19.071   -40.888   -24.210  -129.317   -14.774   -76.453 
 2030.000000   -17.296  -117.425    19.050   -41.838   -24.157  -129.929   -14.795   -77.646 
 2040.000000   -17.363  -118.322    19.033   -42.807   -24.158  -130.351   -14.779   -78.633 
 2050.000000   -17.404  -119.655    19.006   -43.812   -24.134  -131.396   -14.755   -79.526 
 2060.000000   -17.430  -120.476    18.984   -44.806   -24.166  -132.081   -14.755   -80.497 
 2070.000000   -17.416  -121.659    18.961   -45.830   -24.132  -132.744   -14.716   -81.265 
 2080.000000   -17.378  -122.902    18.939   -46.795   -24.119  -133.294   -14.716   -82.260 
 2090.000000   -17.462  -124.136    18.916   -47.749   -24.115  -134.108   -14.703   -83.414 
 2100.000000   -17.470  -125.427    18.898   -48.729   -24.125  -134.744   -14.703   -84.208 
 2110.000000   -17.492  -126.492    18.876   -49.688   -24.116  -135.450   -14.703   -85.400 
 2120.000000   -17.517  -127.650    18.855   -50.636   -24.065  -136.232   -14.727   -86.376 
