! Mini-Circuits  
! S2P DATA File Format
! Type: MMIC Amplifier
! Model: ERA-3SM     Reference Data: RDF-1128B
! Note: All S Parameters are in dB deg format
! TEST CONDITIONS: INPUT POWER = -25dBm, Icc = 42mA, Vd = 3.27V @Temperature = +25degC
! 401 Frequency points
!
# MHz S DB R 50
!    FREQ       dB(S11)   PHS(S11)  dB(S21)   PHS(S21)  dB(S12)   PHS(S12)  dB(S22)   PHS(S22) 
   50.000000   -31.938   144.602    23.232   173.322   -25.846    -4.355   -20.355   168.399 
   60.000000   -33.786   145.838    23.234   172.089   -25.766    -4.402   -20.759   167.353 
   70.000000   -30.462   148.721    23.210   170.939   -25.873    -3.657   -20.740   167.865 
   80.000000   -30.740   143.519    23.225   169.646   -25.729    -5.266   -20.854   163.458 
   90.000000   -31.246   144.251    23.187   168.439   -25.871    -5.477   -20.776   162.851 
  100.000000   -31.131   137.863    23.194   167.147   -25.813    -5.343   -20.696   160.793 
  110.000000   -31.596   135.986    23.182   166.064   -25.869    -5.076   -20.475   158.362 
  120.000000   -31.133   131.619    23.155   164.806   -25.963    -6.994   -20.602   157.774 
  130.000000   -30.590   125.444    23.157   163.703   -25.869    -7.331   -20.524   155.990 
  140.000000   -30.197   122.405    23.151   162.503   -25.858    -7.931   -20.429   154.481 
  150.000000   -30.653   119.098    23.137   161.177   -25.911    -7.851   -20.635   151.950 
  160.000000   -30.370   116.698    23.136   159.967   -25.899    -8.389   -20.319   151.007 
  170.000000   -29.573   116.855    23.106   158.734   -25.832    -9.145   -20.303   149.385 
  180.000000   -29.341   115.374    23.111   157.571   -25.956    -9.620   -20.438   148.079 
  190.000000   -28.993   112.104    23.094   156.366   -25.895   -10.820   -20.285   146.214 
  200.000000   -28.990   108.379    23.075   155.189   -25.837   -10.962   -20.378   144.112 
  210.000000   -28.866   103.014    23.075   153.951   -25.943   -11.723   -20.299   143.553 
  220.000000   -28.606   103.749    23.044   152.724   -25.834   -11.728   -20.135   141.665 
  230.000000   -28.542    99.307    23.041   151.599   -25.865   -12.564   -20.129   139.803 
  240.000000   -28.216    99.782    23.021   150.362   -25.807   -13.382   -20.122   137.415 
  250.000000   -27.891    99.334    23.001   149.184   -25.823   -14.184   -20.302   135.939 
  260.000000   -27.502    95.361    22.995   147.995   -25.762   -14.665   -20.261   135.125 
  270.000000   -27.692    94.335    22.976   146.811   -25.808   -14.858   -20.081   133.007 
  280.000000   -27.338    89.736    22.978   145.567   -25.821   -15.564   -20.046   131.833 
  290.000000   -27.388    89.679    22.945   144.376   -25.821   -15.850   -20.065   130.097 
  300.000000   -27.329    87.554    22.921   143.188   -25.826   -16.478   -19.915   128.577 
  310.000000   -27.105    84.617    22.918   141.978   -25.828   -16.956   -19.864   127.181 
  320.000000   -26.712    82.916    22.897   140.793   -25.811   -18.090   -19.905   125.635 
  330.000000   -26.680    83.338    22.877   139.607   -25.811   -18.125   -19.820   123.919 
  340.000000   -26.410    81.998    22.862   138.441   -25.744   -18.627   -19.843   121.976 
  350.000000   -26.150    79.429    22.844   137.235   -25.716   -19.191   -19.775   120.638 
  360.000000   -25.874    78.588    22.825   136.056   -25.728   -19.701   -19.710   119.404 
  370.000000   -25.819    76.930    22.808   134.887   -25.726   -20.481   -19.775   117.531 
  380.000000   -25.642    73.561    22.791   133.736   -25.676   -20.798   -19.674   116.013 
  390.000000   -25.584    72.890    22.771   132.539   -25.691   -21.611   -19.563   114.481 
  400.000000   -25.253    72.095    22.748   131.437   -25.730   -22.237   -19.518   112.954 
  410.000000   -25.307    68.783    22.731   130.205   -25.685   -22.817   -19.481   111.343 
  420.000000   -24.957    68.168    22.717   129.059   -25.745   -23.516   -19.471   110.013 
  430.000000   -24.772    66.615    22.697   127.935   -25.724   -23.837   -19.410   108.147 
  440.000000   -24.548    65.057    22.676   126.773   -25.705   -24.236   -19.370   106.808 
  450.000000   -24.515    63.754    22.662   125.595   -25.683   -25.319   -19.321   105.515 
  460.000000   -24.526    61.882    22.633   124.413   -25.672   -25.863   -19.313   103.671 
  470.000000   -24.199    61.374    22.616   123.297   -25.696   -26.124   -19.096   102.934 
  480.000000   -23.789    60.896    22.590   122.024   -25.708   -26.584   -18.946   100.394 
  490.000000   -23.863    57.386    22.556   120.936   -25.682   -27.157   -19.064    99.082 
  500.000000   -23.742    56.842    22.546   119.786   -25.644   -27.949   -18.982    97.618 
  510.000000   -23.517    55.510    22.524   118.664   -25.666   -28.335   -18.911    96.429 
  520.000000   -23.498    54.013    22.504   117.485   -25.660   -28.784   -18.855    94.744 
  530.000000   -23.417    52.562    22.482   116.404   -25.598   -29.410   -18.850    93.513 
  540.000000   -23.205    50.197    22.457   115.255   -25.611   -30.299   -18.822    91.820 
  550.000000   -23.131    49.602    22.432   114.172   -25.601   -30.717   -18.674    90.742 
  560.000000   -23.077    48.207    22.414   113.006   -25.570   -31.365   -18.642    89.241 
  570.000000   -22.979    47.171    22.390   111.867   -25.572   -31.960   -18.689    88.023 
  580.000000   -22.874    45.869    22.361   110.701   -25.592   -32.447   -18.579    86.572 
  590.000000   -22.646    44.955    22.353   109.595   -25.580   -33.113   -18.524    84.727 
  600.000000   -22.478    43.866    22.323   108.489   -25.566   -33.644   -18.483    83.305 
  610.000000   -22.458    42.089    22.307   107.332   -25.527   -34.441   -18.456    81.892 
  620.000000   -22.330    41.239    22.278   106.201   -25.519   -34.850   -18.349    80.798 
  630.000000   -22.300    39.592    22.253   105.073   -25.536   -35.325   -18.340    79.362 
  640.000000   -22.114    38.125    22.225   103.992   -25.496   -35.991   -18.240    78.327 
  650.000000   -22.044    37.400    22.199   102.882   -25.471   -36.427   -18.175    76.789 
  660.000000   -21.971    35.609    22.172   101.761   -25.499   -37.291   -18.141    75.574 
  670.000000   -21.817    34.837    22.156   100.640   -25.482   -37.482   -18.028    74.051 
  680.000000   -21.759    33.642    22.132    99.501   -25.452   -38.285   -18.072    72.525 
  690.000000   -21.564    32.217    22.110    98.432   -25.468   -38.890   -17.983    71.401 
  700.000000   -21.556    31.708    22.086    97.324   -25.474   -39.519   -17.959    70.018 
  710.000000   -21.465    29.934    22.055    96.228   -25.459   -40.092   -17.940    68.651 
  720.000000   -21.322    28.783    22.037    95.120   -25.386   -40.796   -17.871    67.545 
  730.000000   -21.339    27.562    22.005    93.991   -25.418   -41.350   -17.838    65.919 
  740.000000   -21.174    25.844    21.985    92.908   -25.411   -41.768   -17.732    64.660 
  750.000000   -21.060    25.406    21.973    91.829   -25.412   -42.291   -17.725    63.549 
  760.000000   -20.984    24.449    21.930    90.717   -25.393   -43.153   -17.693    62.286 
  770.000000   -20.925    22.728    21.903    89.661   -25.386   -43.677   -17.614    60.971 
  780.000000   -20.792    21.055    21.893    88.531   -25.337   -44.133   -17.555    59.683 
  790.000000   -20.724    20.164    21.869    87.460   -25.325   -44.954   -17.515    58.252 
  800.000000   -20.647    18.352    21.838    86.318   -25.337   -45.589   -17.470    57.021 
  810.000000   -20.475    17.623    21.824    85.239   -25.340   -46.178   -17.415    55.976 
  820.000000   -20.421    16.804    21.795    84.176   -25.328   -46.756   -17.445    54.412 
  830.000000   -20.384    15.462    21.768    83.091   -25.327   -47.380   -17.396    53.126 
  840.000000   -20.255    14.474    21.751    81.996   -25.281   -47.975   -17.316    51.782 
  850.000000   -20.215    12.655    21.715    80.918   -25.269   -48.595   -17.298    50.614 
  860.000000   -20.187    11.688    21.689    79.860   -25.262   -49.099   -17.219    49.638 
  870.000000   -20.118    10.930    21.670    78.775   -25.256   -49.826   -17.158    48.412 
  880.000000   -20.073     9.510    21.641    77.722   -25.260   -50.463   -17.136    47.051 
  890.000000   -19.966     9.054    21.624    76.643   -25.278   -51.134   -17.090    45.734 
  900.000000   -19.891     7.904    21.597    75.566   -25.216   -51.690   -17.058    44.534 
  910.000000   -19.814     6.330    21.572    74.475   -25.217   -52.072   -17.029    42.973 
  920.000000   -19.733     4.949    21.547    73.446   -25.225   -52.645   -16.990    41.872 
  930.000000   -19.683     3.586    21.518    72.360   -25.207   -53.205   -16.986    40.368 
  940.000000   -19.629     2.832    21.486    71.324   -25.193   -54.026   -16.869    39.431 
  950.000000   -19.571     1.452    21.470    70.213   -25.165   -54.771   -16.845    38.181 
  960.000000   -19.554     0.466    21.431    69.175   -25.155   -55.300   -16.804    37.075 
  970.000000   -19.457    -0.740    21.417    68.083   -25.139   -55.906   -16.739    36.171 
  980.000000   -19.408    -1.659    21.389    67.000   -25.157   -56.537   -16.729    34.567 
  990.000000   -19.341    -2.850    21.366    65.971   -25.122   -57.241   -16.706    33.617 
 1000.000000   -19.273    -4.053    21.343    64.881   -25.139   -57.908   -16.682    32.089 
 1010.000000   -19.275    -4.874    21.316    63.841   -25.119   -58.344   -16.648    30.882 
 1020.000000   -19.187    -6.621    21.283    62.760   -25.107   -59.252   -16.615    29.891 
 1030.000000   -19.152    -7.643    21.255    61.717   -25.091   -59.696   -16.589    28.604 
 1040.000000   -19.129    -8.818    21.239    60.679   -25.085   -60.434   -16.570    27.471 
 1050.000000   -19.082    -9.923    21.204    59.652   -25.081   -60.844   -16.501    26.344 
 1060.000000   -18.978   -10.837    21.188    58.580   -25.085   -61.483   -16.469    25.114 
 1070.000000   -18.933   -11.604    21.163    57.568   -25.077   -62.244   -16.484    24.193 
 1080.000000   -18.886   -12.768    21.143    56.467   -25.078   -62.661   -16.403    23.038 
 1090.000000   -18.800   -14.262    21.114    55.443   -25.030   -63.584   -16.347    21.571 
 1100.000000   -18.830   -15.514    21.076    54.404   -25.032   -64.033   -16.343    20.390 
 1110.000000   -18.801   -16.757    21.052    53.351   -25.016   -64.561   -16.290    19.494 
 1120.000000   -18.742   -17.722    21.033    52.342   -24.994   -65.400   -16.280    18.339 
 1130.000000   -18.740   -19.221    21.004    51.289   -24.971   -66.001   -16.238    16.852 
 1140.000000   -18.649   -20.102    20.991    50.231   -24.988   -66.493   -16.203    15.885 
 1150.000000   -18.612   -21.187    20.960    49.222   -24.993   -67.272   -16.207    14.500 
 1160.000000   -18.619   -22.152    20.941    48.184   -24.958   -67.956   -16.176    13.354 
 1170.000000   -18.534   -23.144    20.917    47.163   -24.952   -68.577   -16.123    12.267 
 1180.000000   -18.539   -24.146    20.884    46.077   -24.955   -69.207   -16.139    11.119 
 1190.000000   -18.497   -25.316    20.850    45.086   -24.933   -69.575   -16.026    10.033 
 1200.000000   -18.460   -26.354    20.825    44.053   -24.921   -70.531   -15.985     9.041 
 1210.000000   -18.406   -27.723    20.806    43.004   -24.918   -71.026   -15.978     7.758 
 1220.000000   -18.385   -28.961    20.780    41.997   -24.904   -71.534   -15.971     6.974 
 1230.000000   -18.361   -29.430    20.756    40.970   -24.878   -72.355   -15.967     5.652 
 1240.000000   -18.323   -30.747    20.727    39.954   -24.895   -72.754   -15.956     4.432 
 1250.000000   -18.339   -31.884    20.704    38.938   -24.867   -73.640   -15.939     3.264 
 1260.000000   -18.289   -32.739    20.678    37.917   -24.872   -74.315   -15.922     2.185 
 1270.000000   -18.264   -34.362    20.653    36.893   -24.837   -74.856   -15.882     1.056 
 1280.000000   -18.223   -35.320    20.627    35.849   -24.822   -75.434   -15.830     0.045 
 1290.000000   -18.156   -36.302    20.605    34.870   -24.815   -76.157   -15.826    -0.947 
 1300.000000   -18.265   -37.922    20.571    33.803   -24.815   -76.921   -15.794    -2.141 
 1310.000000   -18.180   -38.234    20.554    32.842   -24.831   -77.386   -15.771    -3.105 
 1320.000000   -18.141   -39.525    20.529    31.778   -24.810   -78.075   -15.742    -4.201 
 1330.000000   -18.161   -40.312    20.503    30.823   -24.793   -78.891   -15.743    -5.379 
 1340.000000   -18.111   -41.156    20.482    29.791   -24.786   -79.271   -15.714    -6.294 
 1350.000000   -18.061   -42.360    20.451    28.759   -24.818   -79.994   -15.750    -7.493 
 1360.000000   -17.995   -43.633    20.423    27.754   -24.773   -80.605   -15.658    -8.258 
 1370.000000   -18.020   -44.849    20.400    26.739   -24.731   -81.451   -15.663    -9.566 
 1380.000000   -17.972   -46.407    20.371    25.737   -24.752   -81.838   -15.625   -10.595 
 1390.000000   -18.005   -47.214    20.354    24.725   -24.743   -82.571   -15.608   -11.775 
 1400.000000   -17.941   -48.194    20.329    23.676   -24.731   -83.068   -15.579   -12.702 
 1410.000000   -17.949   -49.254    20.304    22.690   -24.744   -83.853   -15.588   -13.816 
 1420.000000   -17.922   -49.932    20.285    21.697   -24.698   -84.544   -15.553   -14.874 
 1430.000000   -17.915   -51.070    20.262    20.683   -24.686   -85.344   -15.532   -16.030 
 1440.000000   -17.904   -52.443    20.232    19.698   -24.668   -85.799   -15.524   -16.920 
 1450.000000   -17.869   -53.469    20.208    18.664   -24.674   -86.614   -15.469   -17.797 
 1460.000000   -17.876   -54.398    20.182    17.653   -24.669   -87.223   -15.449   -18.946 
 1470.000000   -17.842   -55.747    20.156    16.643   -24.684   -87.881   -15.436   -19.961 
 1480.000000   -17.847   -56.310    20.134    15.638   -24.664   -88.557   -15.386   -20.911 
 1490.000000   -17.836   -57.506    20.103    14.647   -24.679   -89.088   -15.383   -22.277 
 1500.000000   -17.797   -58.618    20.078    13.648   -24.653   -89.658   -15.367   -23.307 
 1510.000000   -17.817   -59.676    20.051    12.657   -24.647   -90.480   -15.376   -24.112 
 1520.000000   -17.857   -60.297    20.043    11.627   -24.635   -90.955   -15.302   -24.647 
 1530.000000   -17.652   -60.649    20.004    10.531   -24.688   -91.536   -15.197   -26.226 
 1540.000000   -17.601   -62.686    19.963     9.590   -24.600   -92.314   -15.232   -27.781 
 1550.000000   -17.619   -64.170    19.937     8.673   -24.577   -92.755   -15.261   -29.001 
 1560.000000   -17.619   -65.249    19.920     7.721   -24.589   -93.542   -15.271   -29.851 
 1570.000000   -17.632   -66.449    19.896     6.736   -24.560   -94.142   -15.263   -30.954 
 1580.000000   -17.636   -67.356    19.872     5.713   -24.541   -94.934   -15.239   -31.794 
 1590.000000   -17.623   -68.370    19.851     4.780   -24.568   -95.622   -15.251   -32.829 
 1600.000000   -17.581   -69.693    19.817     3.733   -24.567   -95.914   -15.220   -34.016 
 1610.000000   -17.549   -70.447    19.796     2.765   -24.544   -96.892   -15.221   -34.943 
 1620.000000   -17.595   -71.873    19.773     1.810   -24.548   -97.725   -15.212   -36.273 
 1630.000000   -17.551   -73.143    19.749     0.788   -24.516   -98.246   -15.215   -37.130 
 1640.000000   -17.588   -73.897    19.726    -0.148   -24.515   -98.860   -15.221   -38.146 
 1650.000000   -17.552   -75.025    19.700    -1.145   -24.506   -99.392   -15.229   -39.136 
 1660.000000   -17.568   -76.380    19.677    -2.145   -24.493  -100.185   -15.202   -40.207 
 1670.000000   -17.548   -77.329    19.653    -3.123   -24.455  -100.699   -15.172   -41.012 
 1680.000000   -17.513   -78.241    19.630    -4.089   -24.473  -101.436   -15.191   -41.964 
 1690.000000   -17.576   -79.362    19.605    -5.074   -24.461  -102.114   -15.168   -43.023 
 1700.000000   -17.523   -80.389    19.586    -6.089   -24.463  -102.666   -15.124   -44.117 
 1710.000000   -17.466   -81.369    19.558    -7.044   -24.483  -103.414   -15.125   -45.385 
 1720.000000   -17.517   -82.665    19.529    -8.040   -24.485  -104.263   -15.115   -46.430 
 1730.000000   -17.492   -83.581    19.514    -8.998   -24.453  -104.799   -15.099   -47.348 
 1740.000000   -17.508   -85.173    19.481    -9.969   -24.408  -105.329   -15.110   -48.564 
 1750.000000   -17.497   -86.215    19.454   -10.962   -24.431  -106.062   -15.068   -49.192 
 1760.000000   -17.472   -87.170    19.432   -11.899   -24.409  -106.614   -15.053   -50.331 
 1770.000000   -17.472   -88.419    19.397   -12.934   -24.407  -107.473   -15.062   -51.380 
 1780.000000   -17.447   -89.526    19.383   -13.828   -24.364  -107.982   -15.047   -52.452 
 1790.000000   -17.489   -90.606    19.364   -14.769   -24.378  -108.703   -15.069   -53.535 
 1800.000000   -17.513   -91.513    19.340   -15.807   -24.373  -109.343   -15.062   -54.472 
 1810.000000   -17.470   -92.336    19.318   -16.783   -24.368  -109.826   -15.044   -55.431 
 1820.000000   -17.497   -93.677    19.294   -17.782   -24.368  -110.643   -15.027   -56.393 
 1830.000000   -17.438   -94.926    19.261   -18.703   -24.345  -111.258   -15.010   -57.502 
 1840.000000   -17.441   -96.014    19.237   -19.675   -24.353  -111.963   -14.992   -58.421 
 1850.000000   -17.426   -96.929    19.214   -20.625   -24.350  -112.588   -14.991   -59.358 
 1860.000000   -17.477   -98.732    19.187   -21.585   -24.334  -113.090   -14.975   -60.463 
 1870.000000   -17.459   -99.271    19.172   -22.556   -24.340  -113.949   -14.966   -61.481 
 1880.000000   -17.514  -100.224    19.151   -23.499   -24.319  -114.593   -14.990   -62.460 
 1890.000000   -17.466  -101.198    19.130   -24.473   -24.301  -115.185   -14.986   -63.404 
 1900.000000   -17.424  -102.219    19.109   -25.453   -24.325  -115.959   -14.985   -64.498 
 1910.000000   -17.416  -103.525    19.075   -26.389   -24.311  -116.693   -14.976   -65.481 
 1920.000000   -17.467  -104.981    19.051   -27.398   -24.284  -117.349   -14.980   -66.301 
 1930.000000   -17.517  -105.856    19.033   -28.345   -24.259  -117.854   -14.976   -67.447 
 1940.000000   -17.511  -107.200    19.006   -29.334   -24.264  -118.462   -14.952   -68.334 
 1950.000000   -17.497  -108.284    18.986   -30.255   -24.238  -119.193   -14.947   -69.244 
 1960.000000   -17.474  -108.601    18.970   -31.248   -24.259  -119.911   -14.948   -70.140 
 1970.000000   -17.485  -110.107    18.935   -32.190   -24.241  -120.526   -14.946   -71.254 
 1980.000000   -17.475  -111.033    18.912   -33.137   -24.204  -121.212   -14.953   -72.196 
 1990.000000   -17.498  -112.074    18.896   -34.112   -24.224  -122.027   -14.917   -73.090 
 2000.000000   -17.464  -113.372    18.864   -35.105   -24.215  -122.379   -14.930   -74.107 
 2010.000000   -17.450  -114.595    18.846   -35.988   -24.224  -123.231   -14.900   -75.023 
 2020.000000   -17.470  -115.648    18.825   -36.944   -24.213  -124.169   -14.924   -76.100 
 2030.000000   -17.498  -116.707    18.800   -37.917   -24.207  -124.621   -14.927   -76.898 
 2040.000000   -17.470  -117.830    18.780   -38.899   -24.192  -125.263   -14.885   -77.871 
 2050.000000   -17.489  -118.861    18.754   -39.851   -24.169  -126.041   -14.888   -78.949 
 2060.000000   -17.509  -119.883    18.730   -40.791   -24.180  -126.504   -14.883   -80.029 
 2070.000000   -17.474  -120.973    18.713   -41.792   -24.168  -127.066   -14.879   -80.898 
 2080.000000   -17.434  -121.994    18.684   -42.732   -24.165  -127.772   -14.875   -81.953 
 2090.000000   -17.495  -123.486    18.660   -43.702   -24.160  -128.495   -14.862   -82.898 
 2100.000000   -17.505  -124.516    18.638   -44.618   -24.132  -129.406   -14.867   -83.707 
 2110.000000   -17.516  -125.598    18.618   -45.585   -24.151  -129.937   -14.875   -84.780 
 2120.000000   -17.522  -126.644    18.589   -46.524   -24.157  -130.365   -14.867   -85.612 
