! Mini-Circuits  
! S2P DATA File Format
! Type: MMIC Amplifier
! Model: ERA-3SM     Reference Data: RDF-1128B
! Note: All S Parameters are in dB deg format
! TEST CONDITIONS: INPUT POWER = -25dBm, Icc = 35mA, Vd = 3.42V @Temperature = -45degC
! 401 Frequency points
!
# MHz S DB R 50
!    FREQ       dB(S11)   PHS(S11)  dB(S21)   PHS(S21)  dB(S12)   PHS(S12)  dB(S22)   PHS(S22) 
   50.000000   -37.227    51.099    23.078   173.343   -25.705    -3.609   -23.124   164.422 
   60.000000   -38.988    35.018    23.095   172.086   -25.664    -4.840   -23.743   164.858 
   70.000000   -40.614    77.564    23.069   170.960   -25.586    -3.906   -23.834   164.923 
   80.000000   -38.848    60.315    23.079   169.643   -25.829    -4.663   -24.008   159.632 
   90.000000   -40.300    47.740    23.046   168.457   -25.673    -5.783   -23.908   159.038 
  100.000000   -37.813    41.356    23.052   167.147   -25.720    -6.745   -24.017   156.607 
  110.000000   -36.162    37.919    23.037   166.038   -25.710    -6.514   -23.953   154.332 
  120.000000   -35.466    41.595    23.019   164.801   -25.776    -7.194   -24.062   152.886 
  130.000000   -34.160    43.348    23.022   163.681   -25.779    -7.802   -24.131   151.514 
  140.000000   -33.576    47.230    23.016   162.448   -25.759    -8.138   -24.030   149.163 
  150.000000   -33.363    42.064    23.015   161.120   -25.633    -8.600   -24.376   147.099 
  160.000000   -32.425    41.557    23.008   159.901   -25.651   -10.032   -23.891   146.072 
  170.000000   -32.531    46.986    22.983   158.658   -25.710   -10.318   -23.918   145.416 
  180.000000   -31.968    50.400    22.989   157.484   -25.695   -10.772   -24.040   143.531 
  190.000000   -31.098    48.001    22.964   156.240   -25.708   -11.451   -23.817   141.107 
  200.000000   -30.592    48.272    22.947   155.078   -25.649   -11.706   -23.929   139.707 
  210.000000   -29.792    47.084    22.953   153.820   -25.654   -12.796   -23.723   139.020 
  220.000000   -29.740    48.483    22.922   152.607   -25.616   -12.797   -23.564   137.347 
  230.000000   -29.294    49.421    22.925   151.455   -25.674   -13.023   -23.515   135.351 
  240.000000   -29.174    51.770    22.901   150.234   -25.541   -14.191   -23.379   132.507 
  250.000000   -29.051    52.033    22.883   149.001   -25.653   -14.378   -23.426   131.259 
  260.000000   -28.411    51.350    22.879   147.815   -25.621   -15.253   -23.379   131.016 
  270.000000   -28.538    51.733    22.864   146.596   -25.538   -15.354   -23.078   128.328 
  280.000000   -27.915    49.752    22.853   145.364   -25.575   -16.154   -22.993   127.967 
  290.000000   -28.122    51.339    22.832   144.153   -25.576   -17.244   -22.970   126.161 
  300.000000   -27.887    49.768    22.810   142.957   -25.619   -17.582   -22.685   124.814 
  310.000000   -27.539    49.126    22.799   141.743   -25.578   -18.365   -22.475   123.285 
  320.000000   -27.321    51.658    22.798   140.549   -25.534   -18.942   -22.515   122.259 
  330.000000   -27.354    51.403    22.770   139.344   -25.570   -18.854   -22.351   119.831 
  340.000000   -27.169    51.324    22.758   138.148   -25.602   -19.988   -22.307   118.002 
  350.000000   -26.863    50.898    22.744   136.930   -25.581   -20.517   -22.206   116.956 
  360.000000   -26.573    50.542    22.717   135.754   -25.507   -21.251   -22.087   115.551 
  370.000000   -26.557    49.224    22.705   134.600   -25.535   -21.786   -22.119   113.854 
  380.000000   -26.307    47.348    22.693   133.401   -25.520   -22.430   -22.001   111.676 
  390.000000   -26.246    47.226    22.674   132.208   -25.531   -22.804   -21.794   110.753 
  400.000000   -25.942    47.944    22.653   131.063   -25.544   -23.331   -21.715   108.953 
  410.000000   -25.833    45.543    22.643   129.815   -25.523   -24.239   -21.622   107.542 
  420.000000   -25.639    45.845    22.619   128.647   -25.461   -25.062   -21.544   106.060 
  430.000000   -25.465    44.862    22.604   127.510   -25.435   -25.516   -21.494   103.788 
  440.000000   -25.255    43.776    22.592   126.347   -25.426   -26.098   -21.412   102.426 
  450.000000   -25.201    41.870    22.567   125.165   -25.498   -26.816   -21.329   100.987 
  460.000000   -25.181    40.918    22.544   123.962   -25.442   -27.400   -21.289    99.050 
  470.000000   -25.034    40.756    22.529   122.848   -25.473   -27.984   -21.045    98.603 
  480.000000   -24.823    44.304    22.526   121.560   -25.534   -28.360   -20.565    97.258 
  490.000000   -24.587    39.796    22.477   120.416   -25.469   -29.078   -20.901    94.436 
  500.000000   -24.508    39.044    22.470   119.254   -25.421   -29.632   -20.724    92.489 
  510.000000   -24.311    37.312    22.446   118.148   -25.454   -30.150   -20.655    91.598 
  520.000000   -24.372    36.964    22.430   116.906   -25.411   -30.799   -20.571    89.568 
  530.000000   -24.311    34.783    22.408   115.830   -25.433   -31.515   -20.521    88.321 
  540.000000   -24.056    32.994    22.377   114.674   -25.403   -32.051   -20.437    86.447 
  550.000000   -23.974    33.106    22.359   113.541   -25.412   -32.539   -20.297    85.373 
  560.000000   -24.031    31.162    22.339   112.372   -25.380   -33.520   -20.189    83.639 
  570.000000   -23.941    31.227    22.324   111.204   -25.391   -33.966   -20.229    82.211 
  580.000000   -23.884    30.499    22.299   110.024   -25.365   -34.369   -20.129    80.734 
  590.000000   -23.659    28.912    22.287   108.889   -25.341   -35.190   -19.965    78.964 
  600.000000   -23.509    28.477    22.261   107.759   -25.347   -35.841   -19.884    77.069 
  610.000000   -23.549    26.018    22.247   106.617   -25.357   -36.580   -19.838    75.480 
  620.000000   -23.485    24.820    22.210   105.464   -25.311   -37.013   -19.703    74.589 
  630.000000   -23.407    23.358    22.192   104.327   -25.314   -37.705   -19.706    72.839 
  640.000000   -23.203    22.280    22.166   103.181   -25.336   -38.115   -19.539    71.721 
  650.000000   -23.185    21.650    22.139   102.073   -25.321   -39.008   -19.455    70.164 
  660.000000   -23.038    20.353    22.123   100.930   -25.284   -39.529   -19.433    68.920 
  670.000000   -22.851    19.018    22.104    99.784   -25.308   -40.282   -19.306    67.042 
  680.000000   -22.832    17.430    22.080    98.630   -25.261   -40.687   -19.280    65.823 
  690.000000   -22.589    16.763    22.061    97.534   -25.248   -41.193   -19.212    64.236 
  700.000000   -22.634    15.249    22.031    96.395   -25.278   -42.052   -19.198    62.815 
  710.000000   -22.523    13.970    22.011    95.292   -25.230   -42.589   -19.158    61.185 
  720.000000   -22.339    12.795    21.990    94.173   -25.258   -43.379   -19.034    60.177 
  730.000000   -22.318    11.426    21.955    93.033   -25.252   -44.072   -18.988    58.684 
  740.000000   -22.061    10.742    21.946    91.881   -25.213   -44.667   -18.878    57.208 
  750.000000   -21.974     9.506    21.926    90.805   -25.191   -45.347   -18.887    56.236 
  760.000000   -21.864     8.561    21.887    89.702   -25.202   -45.652   -18.830    54.944 
  770.000000   -21.806     7.252    21.869    88.590   -25.214   -46.511   -18.777    53.517 
  780.000000   -21.614     5.267    21.852    87.473   -25.198   -47.182   -18.665    52.410 
  790.000000   -21.539     5.175    21.830    86.365   -25.154   -47.729   -18.592    51.059 
  800.000000   -21.391     3.685    21.809    85.197   -25.158   -48.767   -18.560    49.673 
  810.000000   -21.232     2.795    21.786    84.103   -25.163   -49.165   -18.463    48.719 
  820.000000   -21.179     2.398    21.757    83.002   -25.133   -49.686   -18.487    47.264 
  830.000000   -21.100     0.911    21.741    81.894   -25.145   -50.415   -18.397    45.956 
  840.000000   -20.987    -0.364    21.712    80.795   -25.118   -50.806   -18.317    44.580 
  850.000000   -20.910    -1.236    21.687    79.698   -25.092   -51.661   -18.309    43.443 
  860.000000   -20.910    -2.045    21.660    78.579   -25.099   -52.149   -18.185    42.668 
  870.000000   -20.835    -2.726    21.633    77.509   -25.091   -52.891   -18.105    41.544 
  880.000000   -20.749    -3.252    21.620    76.422   -25.088   -53.630   -18.054    40.175 
  890.000000   -20.680    -3.926    21.597    75.323   -25.082   -54.162   -17.971    39.065 
  900.000000   -20.538    -5.049    21.573    74.214   -25.079   -54.892   -17.932    37.809 
  910.000000   -20.492    -6.445    21.553    73.139   -25.059   -55.592   -17.877    36.195 
  920.000000   -20.404    -8.063    21.520    72.057   -25.047   -56.272   -17.810    35.140 
  930.000000   -20.383    -9.112    21.494    70.964   -25.028   -56.778   -17.794    33.783 
  940.000000   -20.318    -9.681    21.470    69.913   -25.036   -57.632   -17.669    32.776 
  950.000000   -20.280   -11.155    21.448    68.800   -25.018   -58.006   -17.612    31.626 
  960.000000   -20.236   -11.416    21.419    67.708   -25.008   -58.705   -17.562    30.665 
  970.000000   -20.115   -12.774    21.405    66.578   -24.996   -59.245   -17.451    29.574 
  980.000000   -20.100   -14.039    21.376    65.504   -24.967   -60.068   -17.414    28.136 
  990.000000   -19.998   -14.855    21.353    64.427   -24.977   -60.677   -17.394    27.092 
 1000.000000   -19.929   -16.463    21.330    63.352   -24.969   -61.355   -17.376    25.619 
 1010.000000   -19.941   -17.627    21.301    62.255   -24.952   -62.107   -17.310    24.523 
 1020.000000   -19.799   -18.818    21.273    61.173   -24.966   -62.657   -17.302    23.433 
 1030.000000   -19.775   -20.155    21.249    60.102   -24.931   -63.160   -17.245    22.163 
 1040.000000   -19.746   -20.751    21.224    59.042   -24.935   -64.002   -17.229    21.014 
 1050.000000   -19.624   -21.602    21.206    57.977   -24.932   -64.650   -17.151    19.945 
 1060.000000   -19.531   -22.902    21.181    56.897   -24.908   -65.261   -17.089    18.656 
 1070.000000   -19.480   -23.514    21.160    55.851   -24.922   -65.833   -17.128    17.714 
 1080.000000   -19.451   -24.354    21.146    54.750   -24.873   -66.631   -17.098    16.735 
 1090.000000   -19.279   -26.146    21.101    53.645   -24.895   -67.135   -16.952    15.457 
 1100.000000   -19.304   -27.199    21.073    52.639   -24.877   -67.914   -16.958    14.087 
 1110.000000   -19.229   -28.295    21.053    51.557   -24.873   -68.533   -16.920    13.302 
 1120.000000   -19.154   -29.359    21.028    50.524   -24.853   -69.277   -16.897    12.351 
 1130.000000   -19.103   -30.161    21.013    49.426   -24.850   -69.906   -16.872    10.896 
 1140.000000   -19.012   -31.167    20.995    48.351   -24.804   -70.606   -16.826     9.786 
 1150.000000   -18.974   -32.393    20.964    47.340   -24.817   -71.173   -16.803     8.697 
 1160.000000   -18.964   -33.032    20.949    46.281   -24.822   -71.931   -16.800     7.430 
 1170.000000   -18.883   -34.201    20.920    45.214   -24.828   -72.530   -16.731     6.487 
 1180.000000   -18.895   -35.013    20.893    44.120   -24.810   -73.085   -16.728     5.443 
 1190.000000   -18.815   -35.793    20.863    43.112   -24.795   -73.874   -16.653     4.284 
 1200.000000   -18.790   -37.026    20.838    42.054   -24.798   -74.514   -16.563     3.498 
 1210.000000   -18.670   -37.899    20.818    40.993   -24.768   -75.051   -16.560     2.216 
 1220.000000   -18.673   -38.787    20.798    39.958   -24.751   -75.812   -16.572     1.343 
 1230.000000   -18.678   -39.573    20.773    38.894   -24.756   -76.564   -16.536     0.306 
 1240.000000   -18.615   -40.711    20.744    37.875   -24.754   -77.149   -16.528    -1.073 
 1250.000000   -18.639   -41.868    20.725    36.823   -24.722   -77.820   -16.500    -2.136 
 1260.000000   -18.601   -43.001    20.690    35.788   -24.738   -78.482   -16.472    -3.201 
 1270.000000   -18.548   -44.244    20.671    34.731   -24.717   -79.156   -16.422    -4.542 
 1280.000000   -18.521   -45.212    20.647    33.662   -24.700   -79.784   -16.370    -5.464 
 1290.000000   -18.458   -46.052    20.622    32.651   -24.684   -80.417   -16.326    -6.413 
 1300.000000   -18.536   -47.384    20.602    31.579   -24.692   -81.406   -16.297    -7.620 
 1310.000000   -18.497   -47.935    20.578    30.578   -24.685   -81.881   -16.241    -8.536 
 1320.000000   -18.458   -49.313    20.553    29.500   -24.668   -82.659   -16.221    -9.601 
 1330.000000   -18.462   -49.977    20.533    28.527   -24.666   -83.157   -16.223   -10.880 
 1340.000000   -18.453   -51.146    20.504    27.473   -24.660   -84.017   -16.184   -11.738 
 1350.000000   -18.391   -52.191    20.479    26.402   -24.623   -84.424   -16.197   -12.956 
 1360.000000   -18.328   -53.255    20.453    25.369   -24.616   -85.323   -16.106   -13.796 
 1370.000000   -18.337   -54.679    20.428    24.335   -24.617   -85.911   -16.086   -15.020 
 1380.000000   -18.258   -55.754    20.406    23.296   -24.626   -86.614   -16.024   -16.097 
 1390.000000   -18.305   -56.687    20.388    22.283   -24.603   -87.244   -16.003   -17.366 
 1400.000000   -18.267   -57.867    20.363    21.208   -24.605   -87.988   -15.964   -18.082 
 1410.000000   -18.262   -58.705    20.337    20.172   -24.593   -88.733   -15.958   -19.295 
 1420.000000   -18.232   -59.651    20.320    19.181   -24.579   -89.190   -15.911   -20.373 
 1430.000000   -18.242   -60.967    20.287    18.149   -24.581   -90.072   -15.888   -21.469 
 1440.000000   -18.214   -61.925    20.270    17.133   -24.558   -90.641   -15.884   -22.386 
 1450.000000   -18.168   -63.170    20.244    16.086   -24.541   -91.205   -15.816   -23.113 
 1460.000000   -18.178   -63.870    20.217    15.047   -24.551   -92.038   -15.774   -24.332 
 1470.000000   -18.141   -64.950    20.199    14.041   -24.530   -92.690   -15.769   -25.287 
 1480.000000   -18.179   -65.831    20.180    12.992   -24.537   -93.363   -15.731   -26.013 
 1490.000000   -18.168   -66.791    20.149    11.938   -24.532   -94.115   -15.699   -27.252 
 1500.000000   -18.086   -67.578    20.123    10.920   -24.525   -94.690   -15.643   -28.382 
 1510.000000   -18.079   -68.959    20.095     9.939   -24.488   -95.277   -15.660   -29.469 
 1520.000000   -18.158   -70.046    20.089     8.958   -24.498   -96.223   -15.660   -30.018 
 1530.000000   -18.196   -70.187    20.075     7.819   -24.479   -96.931   -15.606   -30.391 
 1540.000000   -17.934   -70.244    20.018     6.633   -24.541   -97.514   -15.409   -32.142 
 1550.000000   -17.876   -72.785    19.988     5.774   -24.487   -97.879   -15.466   -33.785 
 1560.000000   -17.903   -74.407    19.961     4.844   -24.491   -98.564   -15.506   -34.702 
 1570.000000   -17.917   -75.441    19.949     3.872   -24.445   -99.332   -15.512   -35.826 
 1580.000000   -17.924   -76.434    19.922     2.819   -24.435  -100.166   -15.505   -36.537 
 1590.000000   -17.919   -77.364    19.902     1.839   -24.406  -100.730   -15.490   -37.533 
 1600.000000   -17.873   -78.207    19.881     0.781   -24.409  -101.634   -15.481   -38.604 
 1610.000000   -17.828   -79.248    19.853    -0.238   -24.428  -102.068   -15.452   -39.546 
 1620.000000   -17.850   -81.021    19.828    -1.216   -24.413  -102.775   -15.437   -40.949 
 1630.000000   -17.814   -81.991    19.806    -2.248   -24.400  -103.516   -15.479   -41.871 
 1640.000000   -17.855   -83.157    19.783    -3.218   -24.407  -104.002   -15.480   -42.878 
 1650.000000   -17.807   -84.352    19.756    -4.244   -24.389  -104.740   -15.466   -43.947 
 1660.000000   -17.793   -85.519    19.736    -5.256   -24.370  -105.449   -15.476   -45.236 
 1670.000000   -17.764   -86.681    19.713    -6.256   -24.370  -106.381   -15.431   -45.896 
 1680.000000   -17.737   -87.518    19.692    -7.251   -24.375  -107.039   -15.452   -46.992 
 1690.000000   -17.756   -88.378    19.678    -8.240   -24.348  -107.798   -15.443   -48.077 
 1700.000000   -17.721   -89.787    19.649    -9.310   -24.345  -108.319   -15.392   -48.987 
 1710.000000   -17.665   -90.603    19.628   -10.313   -24.352  -109.021   -15.396   -50.300 
 1720.000000   -17.656   -91.740    19.602   -11.313   -24.338  -109.702   -15.383   -51.473 
 1730.000000   -17.626   -93.156    19.574   -12.303   -24.324  -110.405   -15.380   -52.414 
 1740.000000   -17.595   -94.402    19.550   -13.281   -24.298  -111.213   -15.377   -53.786 
 1750.000000   -17.581   -95.622    19.524   -14.287   -24.307  -111.866   -15.376   -54.496 
 1760.000000   -17.556   -96.501    19.503   -15.317   -24.299  -112.502   -15.341   -55.393 
 1770.000000   -17.501   -97.308    19.471   -16.328   -24.345  -113.131   -15.343   -56.506 
 1780.000000   -17.455   -98.513    19.455   -17.252   -24.273  -113.741   -15.328   -57.764 
 1790.000000   -17.492   -99.933    19.434   -18.230   -24.266  -114.527   -15.347   -58.827 
 1800.000000   -17.519  -100.713    19.413   -19.266   -24.288  -115.059   -15.375   -59.873 
 1810.000000   -17.494  -101.500    19.396   -20.265   -24.289  -115.771   -15.341   -60.670 
 1820.000000   -17.502  -102.754    19.366   -21.307   -24.263  -116.612   -15.328   -61.562 
 1830.000000   -17.413  -103.595    19.342   -22.249   -24.242  -117.329   -15.325   -62.691 
 1840.000000   -17.409  -104.741    19.314   -23.261   -24.225  -117.762   -15.275   -63.567 
 1850.000000   -17.372  -105.519    19.286   -24.231   -24.234  -118.519   -15.280   -64.502 
 1860.000000   -17.412  -106.952    19.273   -25.180   -24.228  -119.345   -15.259   -65.577 
 1870.000000   -17.401  -107.592    19.255   -26.199   -24.189  -119.984   -15.254   -66.564 
 1880.000000   -17.466  -108.519    19.230   -27.162   -24.195  -120.698   -15.275   -67.544 
 1890.000000   -17.419  -109.090    19.214   -28.175   -24.216  -121.217   -15.283   -68.490 
 1900.000000   -17.371  -110.267    19.186   -29.175   -24.185  -121.787   -15.269   -69.427 
 1910.000000   -17.367  -111.577    19.158   -30.105   -24.193  -122.605   -15.245   -70.301 
 1920.000000   -17.409  -112.774    19.139   -31.144   -24.180  -123.508   -15.275   -71.299 
 1930.000000   -17.500  -113.672    19.117   -32.116   -24.166  -123.761   -15.231   -72.252 
 1940.000000   -17.497  -114.729    19.091   -33.137   -24.182  -124.852   -15.223   -73.278 
 1950.000000   -17.491  -115.513    19.075   -34.056   -24.176  -125.473   -15.201   -74.182 
 1960.000000   -17.502  -116.115    19.061   -35.082   -24.136  -126.134   -15.219   -74.849 
 1970.000000   -17.542  -117.230    19.030   -36.066   -24.135  -126.871   -15.227   -75.866 
 1980.000000   -17.517  -118.172    19.009   -37.035   -24.109  -127.389   -15.216   -76.767 
 1990.000000   -17.577  -119.523    18.984   -38.044   -24.126  -128.352   -15.171   -77.550 
 2000.000000   -17.585  -120.354    18.966   -39.049   -24.105  -128.966   -15.191   -78.522 
 2010.000000   -17.605  -121.504    18.945   -40.002   -24.093  -129.693   -15.150   -79.267 
 2020.000000   -17.602  -122.623    18.919   -41.001   -24.112  -130.423   -15.122   -80.172 
 2030.000000   -17.617  -123.678    18.901   -41.934   -24.106  -130.908   -15.126   -81.308 
 2040.000000   -17.669  -124.659    18.885   -42.905   -24.107  -131.674   -15.107   -82.285 
 2050.000000   -17.706  -126.013    18.862   -43.913   -24.036  -132.654   -15.094   -83.160 
 2060.000000   -17.731  -126.841    18.838   -44.940   -24.035  -133.027   -15.084   -84.111 
 2070.000000   -17.737  -128.340    18.816   -45.952   -24.044  -133.877   -15.066   -84.990 
 2080.000000   -17.688  -129.493    18.788   -46.918   -24.049  -134.381   -15.043   -86.039 
 2090.000000   -17.783  -130.827    18.767   -47.891   -24.071  -135.285   -15.045   -87.212 
 2100.000000   -17.788  -132.145    18.743   -48.856   -24.038  -135.806   -15.035   -87.916 
 2110.000000   -17.781  -133.108    18.721   -49.838   -24.049  -136.596   -15.021   -89.027 
 2120.000000   -17.801  -133.993    18.704   -50.780   -24.037  -137.269   -15.036   -89.947 
