! Mini-Circuits  
! S2P DATA File Format
! Type: MMIC Amplifier
! Model: ERA-3SM     Reference Data: RDF-1128B
! Note: All S Parameters are in dB deg format
! TEST CONDITIONS: INPUT POWER = -25dBm, Icc = 28mA, Vd = 3.09V @Temperature = +85degC
! 401 Frequency points
!
# MHz S DB R 50
!    FREQ       dB(S11)   PHS(S11)  dB(S21)   PHS(S21)  dB(S12)   PHS(S12)  dB(S22)   PHS(S22) 
   50.000000   -24.662    10.672    22.336   173.381   -24.923    -3.195   -38.625   127.709 
   60.000000   -24.814     4.535    22.319   172.252   -24.870    -4.034   -39.827   114.952 
   70.000000   -26.043     5.596    22.294   171.124   -25.010    -4.370   -40.931   121.887 
   80.000000   -25.790     7.703    22.308   169.816   -24.895    -4.877   -39.076   106.983 
   90.000000   -26.174     2.306    22.261   168.695   -25.099    -5.757   -38.052   114.415 
  100.000000   -25.712     5.773    22.285   167.354   -24.940    -5.335   -37.494   114.455 
  110.000000   -25.633     3.786    22.279   166.309   -25.226    -5.786   -34.662   123.604 
  120.000000   -25.772     5.603    22.253   165.075   -25.120    -7.097   -35.412   119.412 
  130.000000   -25.735     6.607    22.262   163.986   -25.129    -7.408   -34.615   114.528 
  140.000000   -25.837     6.422    22.251   162.795   -25.087    -8.195   -33.868   115.563 
  150.000000   -26.126     5.843    22.232   161.528   -25.015    -9.082   -33.921   106.979 
  160.000000   -25.970     5.210    22.225   160.340   -25.005    -8.966   -32.796   112.548 
  170.000000   -26.365     5.622    22.200   159.115   -25.043   -10.056   -31.947   113.635 
  180.000000   -26.673     6.497    22.196   157.971   -25.058    -9.615   -32.472   107.135 
  190.000000   -26.203     5.678    22.189   156.784   -25.100   -10.688   -31.364   110.476 
  200.000000   -26.178     5.315    22.175   155.625   -24.965   -11.294   -30.960   107.395 
  210.000000   -25.822     4.321    22.178   154.401   -25.008   -12.459   -30.966   106.716 
  220.000000   -25.996     3.241    22.167   153.213   -25.051   -12.604   -30.368   106.558 
  230.000000   -25.875     3.130    22.143   152.094   -25.052   -13.025   -30.367   101.445 
  240.000000   -26.066     3.742    22.116   150.898   -25.004   -13.461   -30.018    94.825 
  250.000000   -26.200     2.621    22.097   149.721   -24.979   -13.743   -29.951    92.921 
  260.000000   -25.629     2.916    22.083   148.548   -25.027   -14.998   -30.003    93.479 
  270.000000   -25.942     1.240    22.077   147.370   -25.014   -15.399   -29.327    91.300 
  280.000000   -25.193     0.555    22.080   146.163   -24.971   -15.761   -29.165    92.599 
  290.000000   -25.477    -0.762    22.054   145.010   -24.916   -16.443   -29.061    89.078 
  300.000000   -25.301    -1.886    22.036   143.843   -24.977   -17.225   -28.789    87.398 
  310.000000   -24.942    -3.328    22.033   142.640   -24.952   -17.431   -28.268    87.456 
  320.000000   -25.117    -1.869    22.001   141.476   -25.030   -18.490   -28.642    82.498 
  330.000000   -25.057    -2.884    21.979   140.315   -24.972   -18.983   -28.486    79.623 
  340.000000   -24.949    -3.351    21.967   139.148   -24.900   -19.450   -28.089    78.303 
  350.000000   -24.854    -3.018    21.939   138.009   -24.943   -20.256   -27.982    75.602 
  360.000000   -24.637    -3.458    21.938   136.828   -24.959   -20.737   -27.723    75.826 
  370.000000   -24.418    -4.865    21.928   135.688   -24.943   -21.332   -27.638    74.552 
  380.000000   -24.100    -5.194    21.911   134.534   -24.925   -21.867   -27.397    72.229 
  390.000000   -24.156    -5.518    21.905   133.352   -24.972   -22.326   -27.191    71.740 
  400.000000   -24.020    -5.407    21.869   132.271   -24.901   -23.023   -27.006    70.396 
  410.000000   -23.900    -5.630    21.844   131.069   -24.900   -23.437   -26.994    66.989 
  420.000000   -23.749    -5.756    21.822   129.916   -24.877   -23.947   -26.821    65.913 
  430.000000   -23.661    -5.880    21.805   128.820   -24.887   -24.706   -26.602    64.341 
  440.000000   -23.595    -5.344    21.785   127.663   -24.923   -25.247   -26.526    61.646 
  450.000000   -23.273    -7.340    21.785   126.528   -24.884   -25.935   -26.255    62.877 
  460.000000   -23.321    -8.424    21.760   125.367   -24.862   -26.527   -26.124    61.667 
  470.000000   -23.381    -7.779    21.749   124.247   -24.912   -26.794   -25.967    62.972 
  480.000000   -23.026    -7.725    21.720   123.063   -24.877   -27.431   -25.436    60.020 
  490.000000   -23.020    -8.005    21.678   121.964   -24.879   -28.082   -25.589    57.136 
  500.000000   -23.003    -8.164    21.667   120.835   -24.882   -28.398   -25.428    55.587 
  510.000000   -22.805    -8.261    21.646   119.708   -24.841   -29.304   -25.256    55.736 
  520.000000   -22.812    -9.087    21.618   118.544   -24.874   -29.875   -25.045    54.353 
  530.000000   -22.728   -10.152    21.613   117.456   -24.823   -30.320   -24.921    53.268 
  540.000000   -22.359   -11.140    21.592   116.328   -24.816   -30.730   -24.687    53.202 
  550.000000   -22.425   -10.825    21.569   115.258   -24.849   -31.617   -24.507    52.641 
  560.000000   -22.390   -12.181    21.565   114.125   -24.811   -32.437   -24.342    51.728 
  570.000000   -22.385   -12.322    21.525   113.001   -24.805   -32.798   -24.350    49.369 
  580.000000   -22.367   -12.186    21.497   111.847   -24.807   -33.047   -24.209    47.905 
  590.000000   -22.229   -12.790    21.480   110.754   -24.816   -33.983   -23.937    46.972 
  600.000000   -22.182   -12.419    21.452   109.666   -24.807   -34.334   -23.771    46.160 
  610.000000   -22.141   -13.607    21.443   108.534   -24.778   -35.432   -23.724    44.624 
  620.000000   -21.989   -14.640    21.424   107.432   -24.802   -35.641   -23.443    45.764 
  630.000000   -21.945   -15.523    21.401   106.292   -24.802   -36.339   -23.362    44.145 
  640.000000   -21.842   -15.628    21.377   105.229   -24.811   -36.947   -23.245    43.440 
  650.000000   -21.798   -16.587    21.355   104.130   -24.791   -37.655   -23.063    43.180 
  660.000000   -21.752   -16.647    21.320   103.041   -24.772   -38.191   -23.053    41.055 
  670.000000   -21.654   -16.592    21.301   101.939   -24.739   -38.656   -22.871    39.631 
  680.000000   -21.611   -17.837    21.279   100.799   -24.716   -39.466   -22.776    38.850 
  690.000000   -21.502   -17.558    21.251    99.763   -24.752   -39.878   -22.688    37.742 
  700.000000   -21.520   -18.760    21.239    98.646   -24.695   -40.572   -22.574    37.021 
  710.000000   -21.354   -19.982    21.215    97.553   -24.739   -40.969   -22.437    36.683 
  720.000000   -21.269   -20.028    21.202    96.472   -24.733   -41.898   -22.372    35.299 
  730.000000   -21.220   -21.641    21.177    95.350   -24.687   -42.616   -22.208    34.539 
  740.000000   -21.099   -21.320    21.143    94.293   -24.722   -42.887   -22.113    32.877 
  750.000000   -21.037   -21.645    21.127    93.208   -24.662   -43.459   -22.095    32.634 
  760.000000   -20.950   -22.933    21.099    92.122   -24.707   -44.426   -21.958    31.972 
  770.000000   -20.893   -23.539    21.077    91.053   -24.682   -44.858   -21.891    30.673 
  780.000000   -20.679   -24.311    21.068    89.964   -24.681   -45.460   -21.788    29.681 
  790.000000   -20.648   -25.088    21.034    88.908   -24.640   -45.982   -21.698    28.654 
  800.000000   -20.557   -25.275    21.000    87.797   -24.661   -46.581   -21.669    26.838 
  810.000000   -20.420   -25.687    20.982    86.722   -24.645   -47.268   -21.568    25.968 
  820.000000   -20.408   -26.277    20.952    85.653   -24.632   -47.925   -21.561    24.687 
  830.000000   -20.339   -26.758    20.934    84.580   -24.625   -48.438   -21.465    23.106 
  840.000000   -20.158   -28.330    20.922    83.502   -24.615   -49.113   -21.281    23.112 
  850.000000   -20.122   -29.117    20.896    82.421   -24.620   -49.627   -21.259    21.999 
  860.000000   -20.100   -29.607    20.872    81.351   -24.617   -50.200   -21.196    21.019 
  870.000000   -19.988   -30.734    20.851    80.308   -24.616   -50.763   -21.065    20.535 
  880.000000   -19.939   -30.585    20.816    79.255   -24.637   -51.306   -21.077    18.350 
  890.000000   -19.909   -30.878    20.797    78.209   -24.592   -52.226   -20.989    17.197 
  900.000000   -19.814   -31.728    20.773    77.143   -24.574   -52.808   -20.919    16.421 
  910.000000   -19.721   -32.483    20.743    76.065   -24.584   -53.381   -20.886    14.530 
  920.000000   -19.609   -33.907    20.732    75.000   -24.569   -54.035   -20.733    14.292 
  930.000000   -19.528   -35.003    20.709    73.967   -24.583   -54.528   -20.653    13.178 
  940.000000   -19.525   -35.364    20.678    72.937   -24.558   -55.230   -20.521    12.254 
  950.000000   -19.403   -36.711    20.662    71.818   -24.567   -55.711   -20.459    11.180 
  960.000000   -19.404   -36.981    20.619    70.813   -24.550   -56.419   -20.418     9.992 
  970.000000   -19.314   -37.315    20.599    69.725   -24.551   -56.890   -20.331     9.038 
  980.000000   -19.307   -38.344    20.574    68.690   -24.490   -57.822   -20.267     7.764 
  990.000000   -19.193   -39.008    20.541    67.648   -24.514   -58.489   -20.205     6.658 
 1000.000000   -19.155   -39.678    20.529    66.561   -24.508   -58.934   -20.129     5.403 
 1010.000000   -19.134   -41.387    20.505    65.512   -24.487   -59.566   -20.017     5.063 
 1020.000000   -19.029   -42.186    20.482    64.451   -24.510   -60.140   -20.003     3.925 
 1030.000000   -19.010   -42.939    20.461    63.407   -24.491   -60.837   -19.928     2.567 
 1040.000000   -18.959   -44.062    20.436    62.400   -24.500   -61.421   -19.859     1.894 
 1050.000000   -18.940   -43.940    20.400    61.388   -24.481   -62.039   -19.821     0.217 
 1060.000000   -18.862   -44.924    20.381    60.326   -24.475   -62.718   -19.706    -0.713 
 1070.000000   -18.836   -45.428    20.353    59.291   -24.483   -63.333   -19.690    -1.092 
 1080.000000   -18.816   -46.161    20.325    58.237   -24.460   -63.909   -19.581    -2.636 
 1090.000000   -18.701   -47.761    20.310    57.194   -24.464   -64.632   -19.438    -2.843 
 1100.000000   -18.723   -48.636    20.284    56.175   -24.466   -65.113   -19.386    -3.892 
 1110.000000   -18.674   -49.490    20.259    55.143   -24.486   -65.616   -19.354    -4.630 
 1120.000000   -18.633   -50.542    20.248    54.117   -24.425   -66.327   -19.309    -5.368 
 1130.000000   -18.598   -51.029    20.208    53.086   -24.443   -66.972   -19.243    -7.071 
 1140.000000   -18.528   -51.476    20.189    52.066   -24.415   -67.630   -19.205    -8.287 
 1150.000000   -18.481   -52.615    20.159    51.044   -24.375   -68.310   -19.163    -9.160 
 1160.000000   -18.497   -53.397    20.136    50.033   -24.397   -68.858   -19.116   -10.557 
 1170.000000   -18.440   -54.028    20.125    48.997   -24.382   -69.530   -19.014   -10.718 
 1180.000000   -18.426   -55.229    20.095    47.938   -24.397   -70.201   -18.956   -11.652 
 1190.000000   -18.395   -55.840    20.064    46.965   -24.400   -70.777   -18.865   -12.456 
 1200.000000   -18.349   -56.693    20.049    45.910   -24.392   -71.330   -18.805   -13.036 
 1210.000000   -18.295   -57.546    20.019    44.882   -24.375   -72.040   -18.775   -14.081 
 1220.000000   -18.268   -57.909    19.988    43.878   -24.356   -72.474   -18.808   -15.325 
 1230.000000   -18.272   -58.714    19.963    42.874   -24.367   -73.461   -18.775   -16.223 
 1240.000000   -18.232   -59.509    19.932    41.878   -24.365   -73.780   -18.741   -17.290 
 1250.000000   -18.232   -60.244    19.916    40.860   -24.327   -74.671   -18.728   -18.541 
 1260.000000   -18.175   -61.687    19.898    39.836   -24.332   -75.161   -18.628   -18.960 
 1270.000000   -18.117   -62.669    19.877    38.809   -24.345   -75.709   -18.566   -20.021 
 1280.000000   -18.093   -63.286    19.853    37.790   -24.314   -76.395   -18.530   -21.102 
 1290.000000   -18.030   -64.233    19.831    36.793   -24.340   -77.100   -18.496   -21.611 
 1300.000000   -18.091   -65.173    19.792    35.781   -24.333   -77.795   -18.495   -23.228 
 1310.000000   -18.085   -65.434    19.769    34.824   -24.312   -78.469   -18.458   -23.993 
 1320.000000   -18.019   -66.627    19.747    33.777   -24.284   -79.060   -18.404   -24.669 
 1330.000000   -18.041   -67.040    19.717    32.808   -24.291   -79.681   -18.405   -26.197 
 1340.000000   -18.014   -68.235    19.709    31.757   -24.302   -80.232   -18.333   -26.357 
 1350.000000   -17.961   -69.107    19.677    30.725   -24.309   -80.881   -18.331   -27.374 
 1360.000000   -17.911   -69.987    19.652    29.760   -24.263   -81.457   -18.259   -28.141 
 1370.000000   -17.903   -71.220    19.638    28.740   -24.265   -82.209   -18.218   -29.247 
 1380.000000   -17.843   -72.125    19.598    27.749   -24.279   -82.774   -18.170   -30.458 
 1390.000000   -17.906   -72.743    19.574    26.763   -24.287   -83.632   -18.144   -32.032 
 1400.000000   -17.849   -73.815    19.553    25.739   -24.269   -84.183   -18.110   -32.520 
 1410.000000   -17.869   -74.690    19.520    24.740   -24.262   -84.712   -18.089   -33.627 
 1420.000000   -17.861   -75.132    19.513    23.749   -24.253   -85.323   -18.004   -34.412 
 1430.000000   -17.862   -76.676    19.494    22.728   -24.222   -86.088   -17.918   -35.132 
 1440.000000   -17.843   -77.549    19.469    21.730   -24.205   -86.765   -17.904   -35.947 
 1450.000000   -17.805   -78.375    19.448    20.713   -24.211   -87.149   -17.848   -36.780 
 1460.000000   -17.822   -79.768    19.416    19.737   -24.215   -88.097   -17.794   -37.669 
 1470.000000   -17.803   -80.109    19.384    18.750   -24.215   -88.719   -17.772   -39.047 
 1480.000000   -17.824   -81.125    19.363    17.749   -24.233   -89.246   -17.702   -39.848 
 1490.000000   -17.813   -82.232    19.328    16.780   -24.227   -89.878   -17.657   -40.832 
 1500.000000   -17.814   -82.720    19.310    15.763   -24.190   -90.608   -17.639   -42.003 
 1510.000000   -17.841   -84.076    19.291    14.740   -24.202   -91.118   -17.573   -42.228 
 1520.000000   -17.862   -84.195    19.267    13.718   -24.214   -91.849   -17.483   -42.970 
 1530.000000   -17.704   -85.064    19.230    12.733   -24.187   -92.337   -17.386   -44.542 
 1540.000000   -17.660   -86.494    19.193    11.810   -24.188   -92.975   -17.396   -45.716 
 1550.000000   -17.703   -87.609    19.180    10.843   -24.185   -93.680   -17.397   -46.816 
 1560.000000   -17.700   -89.115    19.166     9.893   -24.161   -94.255   -17.360   -47.078 
 1570.000000   -17.696   -89.898    19.144     8.903   -24.172   -94.784   -17.303   -48.098 
 1580.000000   -17.725   -90.725    19.118     7.885   -24.169   -95.608   -17.288   -49.040 
 1590.000000   -17.708   -91.939    19.100     6.945   -24.138   -96.238   -17.242   -49.681 
 1600.000000   -17.681   -92.333    19.064     5.953   -24.145   -96.731   -17.256   -51.099 
 1610.000000   -17.679   -93.262    19.036     4.971   -24.139   -97.585   -17.249   -52.010 
 1620.000000   -17.682   -94.713    19.015     4.012   -24.127   -98.086   -17.189   -52.995 
 1630.000000   -17.651   -95.501    18.984     3.034   -24.129   -98.836   -17.214   -54.026 
 1640.000000   -17.720   -96.696    18.974     2.052   -24.081   -99.432   -17.201   -54.684 
 1650.000000   -17.677   -97.875    18.951     1.083   -24.112  -100.021   -17.149   -55.321 
 1660.000000   -17.695   -98.999    18.927     0.091   -24.091  -100.650   -17.126   -56.528 
 1670.000000   -17.673   -99.751    18.910    -0.890   -24.099  -101.457   -17.090   -57.114 
 1680.000000   -17.669  -100.745    18.880    -1.865   -24.091  -101.930   -17.088   -57.914 
 1690.000000   -17.709  -101.212    18.852    -2.825   -24.092  -102.638   -17.084   -59.372 
 1700.000000   -17.672  -102.481    18.830    -3.817   -24.081  -103.303   -17.035   -60.246 
 1710.000000   -17.638  -103.377    18.802    -4.767   -24.089  -104.108   -16.987   -61.173 
 1720.000000   -17.668  -104.200    18.776    -5.741   -24.075  -104.560   -16.995   -62.455 
 1730.000000   -17.644  -105.796    18.761    -6.729   -24.048  -105.287   -16.913   -62.759 
 1740.000000   -17.634  -106.981    18.735    -7.683   -24.048  -106.090   -16.917   -63.990 
 1750.000000   -17.625  -108.054    18.709    -8.671   -24.085  -106.558   -16.872   -64.720 
 1760.000000   -17.601  -109.317    18.698    -9.602   -24.041  -107.144   -16.866   -65.709 
 1770.000000   -17.613  -110.112    18.654   -10.586   -24.084  -107.669   -16.872   -66.927 
 1780.000000   -17.589  -110.954    18.637   -11.520   -24.027  -108.443   -16.851   -68.083 
 1790.000000   -17.642  -112.304    18.614   -12.473   -24.015  -109.114   -16.824   -69.048 
 1800.000000   -17.651  -113.291    18.585   -13.477   -24.044  -109.827   -16.832   -70.021 
 1810.000000   -17.637  -113.880    18.571   -14.459   -24.016  -110.490   -16.770   -70.809 
 1820.000000   -17.628  -115.693    18.550   -15.463   -24.022  -111.008   -16.700   -71.381 
 1830.000000   -17.569  -116.518    18.525   -16.373   -24.002  -111.629   -16.694   -72.608 
 1840.000000   -17.574  -117.692    18.501   -17.359   -23.992  -112.463   -16.648   -73.497 
 1850.000000   -17.568  -118.886    18.478   -18.294   -24.030  -112.899   -16.629   -74.261 
 1860.000000   -17.582  -120.079    18.448   -19.209   -23.997  -113.519   -16.607   -75.832 
 1870.000000   -17.588  -120.891    18.429   -20.185   -23.990  -114.355   -16.593   -76.670 
 1880.000000   -17.649  -122.166    18.405   -21.143   -24.009  -114.830   -16.573   -77.606 
 1890.000000   -17.620  -122.757    18.379   -22.098   -23.984  -115.537   -16.579   -78.747 
 1900.000000   -17.580  -124.079    18.369   -23.104   -23.984  -116.328   -16.524   -79.372 
 1910.000000   -17.545  -125.508    18.343   -24.030   -23.950  -116.772   -16.495   -80.124 
 1920.000000   -17.579  -126.809    18.315   -25.011   -23.966  -117.526   -16.477   -81.076 
 1930.000000   -17.639  -128.094    18.304   -25.955   -23.967  -118.037   -16.428   -82.020 
 1940.000000   -17.615  -129.339    18.270   -26.944   -23.954  -118.830   -16.403   -82.941 
 1950.000000   -17.610  -129.965    18.246   -27.857   -23.936  -119.411   -16.385   -84.006 
 1960.000000   -17.622  -130.604    18.225   -28.856   -23.924  -120.108   -16.366   -84.785 
 1970.000000   -17.642  -132.014    18.192   -29.765   -23.962  -120.896   -16.342   -85.658 
 1980.000000   -17.614  -132.858    18.174   -30.710   -23.946  -121.431   -16.337   -86.775 
 1990.000000   -17.635  -134.572    18.159   -31.713   -23.931  -122.213   -16.262   -86.967 
 2000.000000   -17.616  -135.618    18.132   -32.651   -23.908  -122.650   -16.266   -88.118 
 2010.000000   -17.596  -136.740    18.117   -33.554   -23.933  -123.441   -16.245   -88.872 
 2020.000000   -17.617  -138.071    18.101   -34.539   -23.924  -124.081   -16.212   -89.726 
 2030.000000   -17.635  -138.605    18.063   -35.468   -23.918  -124.640   -16.231   -90.819 
 2040.000000   -17.621  -139.623    18.042   -36.411   -23.926  -125.516   -16.191   -91.862 
 2050.000000   -17.617  -140.883    18.021   -37.354   -23.906  -126.261   -16.155   -92.581 
 2060.000000   -17.613  -141.842    17.986   -38.290   -23.883  -126.755   -16.155   -93.597 
 2070.000000   -17.584  -143.038    17.978   -39.308   -23.903  -127.425   -16.136   -94.304 
 2080.000000   -17.563  -144.232    17.956   -40.244   -23.854  -127.852   -16.124   -94.948 
 2090.000000   -17.605  -145.525    17.934   -41.168   -23.906  -128.626   -16.113   -95.987 
 2100.000000   -17.581  -146.696    17.915   -42.113   -23.893  -129.306   -16.113   -96.754 
 2110.000000   -17.583  -147.905    17.888   -43.044   -23.892  -129.962   -16.101   -97.589 
 2120.000000   -17.594  -148.293    17.859   -43.967   -23.878  -130.656   -16.143   -98.860 
