! Mini-Circuits
! S2P DATA File Format
! Type: LOW PASS FILTER
! Model: LFCG-1000+
! All S Parameters are in dB deg format
! TEST CONDITIONS: INPUT POWER = 0 dBm @ Temperature = -55deg C
# MHz S dB R 50
!Frequency        S11 dB  S11 DEG   S21 dB  S21 DEG   S12 dB  S12 DEG   S22 dB  S22 DEG
  10.0000     -3.605280E+001  7.210017E+001 -1.165751E-001 -1.757485E+000 -1.135588E-001 -1.922022E+000 -3.635118E+001  7.082272E+001
  13.0000     -3.615658E+001  4.265499E+001 -1.190541E-001 -2.082896E+000 -1.164876E-001 -2.210451E+000 -3.612428E+001  4.594930E+001
  16.0000     -3.679899E+001  2.452290E+001 -1.192480E-001 -2.469022E+000 -1.176852E-001 -2.577604E+000 -3.679855E+001  3.372839E+001
  19.0000     -3.748973E+001  1.610752E+001 -1.201302E-001 -2.895100E+000 -1.189224E-001 -3.001655E+000 -3.791246E+001  2.735681E+001
  20.0000     -3.791584E+001  1.523815E+001 -1.193435E-001 -3.041251E+000 -1.201210E-001 -3.136982E+000 -3.815443E+001  2.738733E+001
  30.0000     -3.994993E+001  3.487357E+001 -1.229834E-001 -4.476010E+000 -1.204551E-001 -4.564540E+000 -3.993797E+001  3.385660E+001
  40.0000     -3.734436E+001  4.882743E+001 -1.252085E-001 -5.898360E+000 -1.247995E-001 -5.993829E+000 -3.795188E+001  4.236691E+001
  50.0000     -3.589301E+001  4.483620E+001 -1.399331E-001 -7.323359E+000 -1.270357E-001 -7.384655E+000 -3.588099E+001  3.988128E+001
  60.0000     -3.594738E+001  4.639357E+001 -1.443573E-001 -8.755227E+000 -1.375173E-001 -8.817979E+000 -3.447686E+001  3.606259E+001
  70.0000     -3.517485E+001  4.787601E+001 -1.504547E-001 -1.017681E+001 -1.427616E-001 -1.025043E+001 -3.444936E+001  3.882179E+001
  80.0000     -3.377752E+001  4.757944E+001 -1.518333E-001 -1.163895E+001 -1.460598E-001 -1.168712E+001 -3.345598E+001  4.267583E+001
  90.0000     -3.293723E+001  4.541225E+001 -1.546947E-001 -1.306930E+001 -1.496604E-001 -1.310355E+001 -3.241897E+001  4.097332E+001
 100.0000     -3.280493E+001  4.537672E+001 -1.558346E-001 -1.448222E+001 -1.532196E-001 -1.451529E+001 -3.177625E+001  3.764013E+001
 110.0000     -3.228458E+001  4.767825E+001 -1.594673E-001 -1.592596E+001 -1.569479E-001 -1.594286E+001 -3.129151E+001  3.594349E+001
 120.0000     -3.153925E+001  4.712447E+001 -1.643077E-001 -1.734721E+001 -1.601365E-001 -1.736437E+001 -3.092600E+001  3.666340E+001
 130.0000     -3.078604E+001  4.704876E+001 -1.684026E-001 -1.878242E+001 -1.654499E-001 -1.880048E+001 -3.018332E+001  3.619096E+001
 140.0000     -3.063651E+001  4.665327E+001 -1.728886E-001 -2.022613E+001 -1.701000E-001 -2.023434E+001 -2.955301E+001  3.482710E+001
 150.0000     -3.039015E+001  4.739758E+001 -1.776488E-001 -2.166579E+001 -1.748878E-001 -2.166416E+001 -2.908637E+001  3.347413E+001
 160.0000     -2.952725E+001  4.858478E+001 -1.793843E-001 -2.307294E+001 -1.767581E-001 -2.307946E+001 -2.869519E+001  3.211453E+001
 170.0000     -2.894311E+001  4.732336E+001 -1.840910E-001 -2.450784E+001 -1.817572E-001 -2.451421E+001 -2.825397E+001  3.172630E+001
 180.0000     -2.883118E+001  4.623679E+001 -1.874850E-001 -2.593891E+001 -1.855683E-001 -2.593994E+001 -2.779235E+001  3.084887E+001
 190.0000     -2.865214E+001  4.631680E+001 -1.897948E-001 -2.736691E+001 -1.880760E-001 -2.736497E+001 -2.741785E+001  2.881002E+001
 200.0000     -2.819871E+001  4.645853E+001 -1.918772E-001 -2.879589E+001 -1.921585E-001 -2.879484E+001 -2.711212E+001  2.716171E+001
 210.0000     -2.781864E+001  4.523588E+001 -1.970690E-001 -3.022649E+001 -1.936739E-001 -3.023190E+001 -2.692408E+001  2.710100E+001
 220.0000     -2.765304E+001  4.534775E+001 -1.989980E-001 -3.166629E+001 -1.958389E-001 -3.167458E+001 -2.669995E+001  2.585142E+001
 230.0000     -2.754926E+001  4.566681E+001 -2.013219E-001 -3.310686E+001 -1.980229E-001 -3.311462E+001 -2.627089E+001  2.458654E+001
 240.0000     -2.725119E+001  4.510700E+001 -2.051052E-001 -3.454799E+001 -2.016919E-001 -3.455066E+001 -2.598466E+001  2.268537E+001
 250.0000     -2.683976E+001  4.500498E+001 -2.098486E-001 -3.599652E+001 -2.054718E-001 -3.601224E+001 -2.579954E+001  2.064149E+001
 260.0000     -2.662223E+001  4.444477E+001 -2.136555E-001 -3.745100E+001 -2.096182E-001 -3.746193E+001 -2.553777E+001  1.963441E+001
 270.0000     -2.665592E+001  4.389987E+001 -2.148939E-001 -3.889869E+001 -2.116595E-001 -3.891102E+001 -2.529393E+001  1.882368E+001
 280.0000     -2.646741E+001  4.392539E+001 -2.211248E-001 -4.034584E+001 -2.178571E-001 -4.035211E+001 -2.501410E+001  1.652718E+001
 290.0000     -2.614265E+001  4.313349E+001 -2.247628E-001 -4.180952E+001 -2.208056E-001 -4.181944E+001 -2.487672E+001  1.435957E+001
 300.0000     -2.603613E+001  4.211399E+001 -2.261279E-001 -4.327710E+001 -2.204319E-001 -4.328505E+001 -2.475481E+001  1.304613E+001
 310.0000     -2.604101E+001  4.180875E+001 -2.303111E-001 -4.474151E+001 -2.262813E-001 -4.475199E+001 -2.450358E+001  1.188294E+001
 320.0000     -2.589763E+001  4.141431E+001 -2.311684E-001 -4.622259E+001 -2.276734E-001 -4.623232E+001 -2.435481E+001  1.166105E+001
 330.0000     -2.562341E+001  4.105866E+001 -2.320156E-001 -4.768718E+001 -2.288944E-001 -4.770019E+001 -2.421586E+001  9.181231E+000
 340.0000     -2.553732E+001  4.004144E+001 -2.366749E-001 -4.915395E+001 -2.330198E-001 -4.916220E+001 -2.408603E+001  6.959266E+000
 350.0000     -2.548631E+001  3.903758E+001 -2.411860E-001 -5.062893E+001 -2.379205E-001 -5.064136E+001 -2.399080E+001  5.840102E+000
 360.0000     -2.533810E+001  3.968918E+001 -2.411943E-001 -5.211008E+001 -2.385421E-001 -5.212153E+001 -2.382899E+001  3.715663E+000
 370.0000     -2.526264E+001  3.915517E+001 -2.416971E-001 -5.361898E+001 -2.390757E-001 -5.362948E+001 -2.370155E+001  2.454325E+000
 380.0000     -2.514010E+001  3.880584E+001 -2.452501E-001 -5.512590E+001 -2.415044E-001 -5.513120E+001 -2.354992E+001  8.074383E-001
 390.0000     -2.505890E+001  3.758989E+001 -2.480462E-001 -5.662324E+001 -2.445232E-001 -5.663633E+001 -2.344575E+001 -3.858739E-001
 400.0000     -2.498367E+001  3.638428E+001 -2.529104E-001 -5.813802E+001 -2.476047E-001 -5.814177E+001 -2.334424E+001 -1.524878E+000
 410.0000     -2.488811E+001  3.637296E+001 -2.559726E-001 -5.964664E+001 -2.519427E-001 -5.965721E+001 -2.320481E+001 -3.611596E+000
 420.0000     -2.480375E+001  3.534731E+001 -2.582764E-001 -6.116272E+001 -2.543385E-001 -6.117699E+001 -2.308339E+001 -5.471324E+000
 430.0000     -2.468545E+001  3.412866E+001 -2.601380E-001 -6.268204E+001 -2.559699E-001 -6.268879E+001 -2.303491E+001 -6.908234E+000
 440.0000     -2.465623E+001  3.350457E+001 -2.628206E-001 -6.421916E+001 -2.588765E-001 -6.422739E+001 -2.295995E+001 -8.246689E+000
 450.0000     -2.464816E+001  3.231704E+001 -2.666647E-001 -6.577578E+001 -2.636324E-001 -6.578482E+001 -2.284039E+001 -9.726239E+000
 460.0000     -2.449701E+001  3.111027E+001 -2.693326E-001 -6.732079E+001 -2.664461E-001 -6.732892E+001 -2.273204E+001 -1.117190E+001
 470.0000     -2.443083E+001  3.060777E+001 -2.701825E-001 -6.886471E+001 -2.665715E-001 -6.887569E+001 -2.278089E+001 -1.283026E+001
 480.0000     -2.442348E+001  2.995620E+001 -2.754118E-001 -7.041507E+001 -2.714131E-001 -7.042374E+001 -2.281905E+001 -1.488390E+001
 490.0000     -2.444087E+001  2.920065E+001 -2.801472E-001 -7.197913E+001 -2.762836E-001 -7.198503E+001 -2.274259E+001 -1.631934E+001
 500.0000     -2.436410E+001  2.814730E+001 -2.826962E-001 -7.355679E+001 -2.792391E-001 -7.356960E+001 -2.265888E+001 -1.754290E+001
 510.0000     -2.418296E+001  2.684358E+001 -2.862186E-001 -7.514056E+001 -2.840707E-001 -7.516057E+001 -2.263347E+001 -1.990213E+001
 520.0000     -2.426768E+001  2.568114E+001 -2.871417E-001 -7.673254E+001 -2.865155E-001 -7.674654E+001 -2.251749E+001 -2.113984E+001
 530.0000     -2.432835E+001  2.482554E+001 -2.880741E-001 -7.833281E+001 -2.873358E-001 -7.833455E+001 -2.257903E+001 -2.287459E+001
 540.0000     -2.425237E+001  2.360227E+001 -2.949013E-001 -7.996144E+001 -2.920659E-001 -7.994949E+001 -2.260393E+001 -2.443687E+001
 550.0000     -2.420646E+001  2.220702E+001 -3.040668E-001 -8.158061E+001 -2.988329E-001 -8.157513E+001 -2.253487E+001 -2.594657E+001
 560.0000     -2.429957E+001  2.104807E+001 -3.072674E-001 -8.319113E+001 -3.014570E-001 -8.320041E+001 -2.258438E+001 -2.799224E+001
 570.0000     -2.425714E+001  2.020163E+001 -3.077953E-001 -8.482965E+001 -3.021185E-001 -8.484441E+001 -2.266964E+001 -2.934293E+001
 580.0000     -2.440411E+001  1.866149E+001 -3.094441E-001 -8.645520E+001 -3.042087E-001 -8.647437E+001 -2.269360E+001 -3.082003E+001
 590.0000     -2.455628E+001  1.725934E+001 -3.111435E-001 -8.810826E+001 -3.058306E-001 -8.812975E+001 -2.277377E+001 -3.197899E+001
 600.0000     -2.464036E+001  1.613778E+001 -3.135746E-001 -8.978374E+001 -3.096592E-001 -8.981273E+001 -2.286157E+001 -3.338077E+001
 610.0000     -2.480960E+001  1.477334E+001 -3.205440E-001 -9.145705E+001 -3.163738E-001 -9.149180E+001 -2.291619E+001 -3.524625E+001
 620.0000     -2.483296E+001  1.286094E+001 -3.226087E-001 -9.313619E+001 -3.202552E-001 -9.317482E+001 -2.305375E+001 -3.682603E+001
 630.0000     -2.489073E+001  1.093873E+001 -3.272432E-001 -9.483494E+001 -3.255819E-001 -9.487251E+001 -2.322952E+001 -3.847595E+001
 640.0000     -2.511214E+001  9.325471E+000 -3.304553E-001 -9.654794E+001 -3.295107E-001 -9.658199E+001 -2.335379E+001 -4.011650E+001
 650.0000     -2.536888E+001  8.247441E+000 -3.337663E-001 -9.827731E+001 -3.325003E-001 -9.830166E+001 -2.350274E+001 -4.141624E+001
 660.0000     -2.551619E+001  7.133982E+000 -3.360213E-001 -1.000107E+002 -3.345383E-001 -1.000285E+002 -2.373211E+001 -4.271766E+001
 670.0000     -2.567979E+001  5.103685E+000 -3.414575E-001 -1.017687E+002 -3.398213E-001 -1.017869E+002 -2.386992E+001 -4.394060E+001
 680.0000     -2.587981E+001  2.941838E+000 -3.445370E-001 -1.035228E+002 -3.425042E-001 -1.035466E+002 -2.410060E+001 -4.500380E+001
 690.0000     -2.610544E+001  1.051591E+000 -3.488050E-001 -1.053022E+002 -3.473867E-001 -1.053239E+002 -2.432830E+001 -4.598180E+001
 700.0000     -2.639846E+001 -1.379690E+000 -3.555583E-001 -1.070945E+002 -3.544187E-001 -1.071123E+002 -2.455742E+001 -4.695618E+001
 710.0000     -2.677759E+001 -3.855299E+000 -3.570953E-001 -1.088920E+002 -3.556981E-001 -1.089064E+002 -2.484331E+001 -4.772658E+001
 720.0000     -2.711949E+001 -5.979929E+000 -3.605895E-001 -1.107231E+002 -3.590082E-001 -1.107365E+002 -2.509341E+001 -4.890675E+001
 730.0000     -2.743706E+001 -8.765049E+000 -3.680047E-001 -1.125640E+002 -3.667189E-001 -1.125757E+002 -2.545659E+001 -5.019230E+001
 740.0000     -2.782461E+001 -1.096596E+001 -3.722669E-001 -1.144056E+002 -3.717070E-001 -1.144181E+002 -2.583668E+001 -5.153043E+001
 750.0000     -2.823158E+001 -1.355463E+001 -3.736552E-001 -1.162673E+002 -3.723232E-001 -1.162770E+002 -2.623939E+001 -5.144020E+001
 760.0000     -2.861133E+001 -1.756180E+001 -3.796026E-001 -1.181542E+002 -3.775967E-001 -1.181684E+002 -2.671921E+001 -5.001925E+001
 770.0000     -2.911338E+001 -2.067889E+001 -3.864628E-001 -1.200484E+002 -3.858727E-001 -1.200653E+002 -2.704442E+001 -5.055445E+001
 780.0000     -2.945567E+001 -2.402178E+001 -3.906195E-001 -1.219585E+002 -3.889680E-001 -1.219729E+002 -2.747289E+001 -5.048980E+001
 790.0000     -2.997471E+001 -2.820764E+001 -3.923204E-001 -1.238985E+002 -3.909391E-001 -1.239105E+002 -2.789884E+001 -4.909203E+001
 800.0000     -3.072901E+001 -3.312679E+001 -3.983794E-001 -1.258646E+002 -3.966048E-001 -1.258748E+002 -2.836393E+001 -4.770832E+001
 810.0000     -3.136946E+001 -3.868652E+001 -4.069397E-001 -1.278373E+002 -4.043670E-001 -1.278535E+002 -2.901602E+001 -4.610502E+001
 820.0000     -3.186716E+001 -4.426361E+001 -4.108790E-001 -1.298282E+002 -4.090494E-001 -1.298432E+002 -2.967469E+001 -4.195624E+001
 830.0000     -3.256803E+001 -5.113659E+001 -4.201463E-001 -1.318583E+002 -4.188440E-001 -1.318725E+002 -3.000073E+001 -3.973153E+001
 840.0000     -3.324133E+001 -5.964457E+001 -4.274389E-001 -1.338836E+002 -4.251327E-001 -1.338985E+002 -3.043629E+001 -3.617888E+001
 850.0000     -3.382943E+001 -6.919556E+001 -4.320447E-001 -1.359213E+002 -4.300702E-001 -1.359395E+002 -3.084694E+001 -2.992088E+001
 860.0000     -3.438220E+001 -7.979975E+001 -4.406012E-001 -1.380200E+002 -4.380638E-001 -1.380424E+002 -3.097420E+001 -2.512097E+001
 870.0000     -3.439356E+001 -9.157331E+001 -4.457002E-001 -1.401280E+002 -4.434733E-001 -1.401469E+002 -3.116211E+001 -1.982915E+001
 880.0000     -3.444357E+001 -1.036754E+002 -4.552052E-001 -1.422529E+002 -4.530345E-001 -1.422651E+002 -3.123399E+001 -1.394487E+001
 890.0000     -3.411171E+001 -1.165711E+002 -4.635182E-001 -1.443998E+002 -4.612539E-001 -1.444144E+002 -3.077389E+001 -8.367414E+000
 900.0000     -3.327342E+001 -1.267480E+002 -4.704746E-001 -1.465765E+002 -4.675033E-001 -1.465881E+002 -3.003077E+001 -2.883276E+000
 905.0000     -3.287355E+001 -1.308309E+002 -4.746271E-001 -1.476672E+002 -4.724174E-001 -1.476761E+002 -2.968443E+001  2.100876E-001
 910.0000     -3.245579E+001 -1.348810E+002 -4.805649E-001 -1.487652E+002 -4.770986E-001 -1.487767E+002 -2.936593E+001  2.749699E+000
 915.0000     -3.208891E+001 -1.394706E+002 -4.855750E-001 -1.498763E+002 -4.831281E-001 -1.498913E+002 -2.910402E+001  4.237569E+000
 920.0000     -3.168791E+001 -1.441324E+002 -4.912125E-001 -1.510023E+002 -4.879747E-001 -1.510115E+002 -2.887662E+001  5.201962E+000
 925.0000     -3.125795E+001 -1.484501E+002 -4.963265E-001 -1.521244E+002 -4.934913E-001 -1.521346E+002 -2.863993E+001  6.110868E+000
 930.0000     -3.077854E+001 -1.522711E+002 -5.015931E-001 -1.532533E+002 -4.980806E-001 -1.532673E+002 -2.835922E+001  7.289855E+000
 935.0000     -3.029153E+001 -1.554862E+002 -5.068914E-001 -1.543898E+002 -5.029564E-001 -1.544043E+002 -2.807942E+001  8.706334E+000
 940.0000     -2.982413E+001 -1.584455E+002 -5.131410E-001 -1.555373E+002 -5.085017E-001 -1.555522E+002 -2.774989E+001  1.019747E+001
 945.0000     -2.940536E+001 -1.614136E+002 -5.185142E-001 -1.566849E+002 -5.149201E-001 -1.567085E+002 -2.738142E+001  1.153597E+001
 950.0000     -2.903790E+001 -1.642415E+002 -5.248203E-001 -1.578490E+002 -5.202711E-001 -1.578708E+002 -2.697363E+001  1.216945E+001
 955.0000     -2.872589E+001 -1.669860E+002 -5.310994E-001 -1.590087E+002 -5.259612E-001 -1.590345E+002 -2.656894E+001  1.252318E+001
 960.0000     -2.838073E+001 -1.695244E+002 -5.360646E-001 -1.601740E+002 -5.312849E-001 -1.602048E+002 -2.618612E+001  1.257574E+001
 965.0000     -2.802237E+001 -1.718223E+002 -5.404137E-001 -1.613518E+002 -5.361936E-001 -1.613844E+002 -2.584837E+001  1.285170E+001
 970.0000     -2.769467E+001 -1.739473E+002 -5.453947E-001 -1.625388E+002 -5.402195E-001 -1.625780E+002 -2.555602E+001  1.309991E+001
 975.0000     -2.738979E+001 -1.756804E+002 -5.500910E-001 -1.637352E+002 -5.458156E-001 -1.637753E+002 -2.530202E+001  1.334426E+001
 980.0000     -2.711852E+001 -1.775745E+002 -5.558481E-001 -1.649450E+002 -5.522110E-001 -1.649834E+002 -2.508873E+001  1.361309E+001
 985.0000     -2.682746E+001 -1.796170E+002 -5.621195E-001 -1.661581E+002 -5.581549E-001 -1.661972E+002 -2.483900E+001  1.370801E+001
 990.0000     -2.650039E+001  1.781192E+002 -5.683329E-001 -1.673728E+002 -5.648696E-001 -1.674175E+002 -2.455759E+001  1.356446E+001
 995.0000     -2.616216E+001  1.758667E+002 -5.743613E-001 -1.685988E+002 -5.723594E-001 -1.686437E+002 -2.427617E+001  1.333107E+001
1000.0000     -2.587506E+001  1.738527E+002 -5.818262E-001 -1.698452E+002 -5.792084E-001 -1.698863E+002 -2.402831E+001  1.273381E+001
1005.0000     -2.561936E+001  1.720727E+002 -5.886833E-001 -1.711002E+002 -5.866521E-001 -1.711372E+002 -2.381392E+001  1.205999E+001
1010.0000     -2.539248E+001  1.704918E+002 -5.954252E-001 -1.723608E+002 -5.937155E-001 -1.723978E+002 -2.358130E+001  1.141305E+001
1015.0000     -2.517557E+001  1.688505E+002 -6.021298E-001 -1.736213E+002 -6.005942E-001 -1.736584E+002 -2.331149E+001  1.098424E+001
1020.0000     -2.496096E+001  1.671930E+002 -6.090667E-001 -1.748910E+002 -6.068023E-001 -1.749276E+002 -2.302820E+001  1.057040E+001
1025.0000     -2.470792E+001  1.655566E+002 -6.155629E-001 -1.761726E+002 -6.142728E-001 -1.762081E+002 -2.276478E+001  1.000133E+001
1030.0000     -2.444271E+001  1.638448E+002 -6.232694E-001 -1.774678E+002 -6.213622E-001 -1.775002E+002 -2.254442E+001  9.362682E+000
1035.0000     -2.419999E+001  1.621200E+002 -6.299490E-001 -1.787742E+002 -6.276493E-001 -1.788111E+002 -2.233763E+001  8.621392E+000
1040.0000     -2.400491E+001  1.603558E+002 -6.357919E-001  1.799009E+002 -6.335907E-001  1.798710E+002 -2.216347E+001  7.849258E+000
1045.0000     -2.382250E+001  1.586214E+002 -6.423430E-001  1.785715E+002 -6.403996E-001  1.785432E+002 -2.199082E+001  7.143393E+000
1050.0000     -2.367395E+001  1.570472E+002 -6.503294E-001  1.772357E+002 -6.480456E-001  1.772111E+002 -2.181538E+001  6.592168E+000
1055.0000     -2.353208E+001  1.556415E+002 -6.594221E-001  1.758948E+002 -6.576530E-001  1.758690E+002 -2.164670E+001  6.022034E+000
1060.0000     -2.339124E+001  1.540927E+002 -6.686803E-001  1.745441E+002 -6.656627E-001  1.745171E+002 -2.150734E+001  5.339559E+000
1065.0000     -2.325394E+001  1.523763E+002 -6.756856E-001  1.731718E+002 -6.739268E-001  1.731443E+002 -2.141043E+001  4.470320E+000
1070.0000     -2.312750E+001  1.505707E+002 -6.833012E-001  1.717881E+002 -6.811454E-001  1.717577E+002 -2.131345E+001  3.424487E+000
1075.0000     -2.302085E+001  1.489555E+002 -6.909891E-001  1.703938E+002 -6.892920E-001  1.703609E+002 -2.118353E+001  2.580168E+000
1080.0000     -2.293220E+001  1.475373E+002 -6.999630E-001  1.689845E+002 -6.978847E-001  1.689615E+002 -2.102933E+001  1.740650E+000
1085.0000     -2.284965E+001  1.461353E+002 -7.083110E-001  1.675665E+002 -7.054679E-001  1.675390E+002 -2.089149E+001  7.625558E-001
1090.0000     -2.274700E+001  1.448925E+002 -7.172533E-001  1.661325E+002 -7.137430E-001  1.661036E+002 -2.080047E+001 -2.246205E-001
1095.0000     -2.264660E+001  1.435092E+002 -7.252054E-001  1.646812E+002 -7.225827E-001  1.646558E+002 -2.072058E+001 -1.368294E+000
1100.0000     -2.256556E+001  1.419454E+002 -7.339099E-001  1.632219E+002 -7.303941E-001  1.631924E+002 -2.066169E+001 -2.467152E+000
1105.0000     -2.250737E+001  1.402125E+002 -7.424372E-001  1.617526E+002 -7.397463E-001  1.617176E+002 -2.058996E+001 -3.678332E+000
1110.0000     -2.248089E+001  1.386551E+002 -7.510408E-001  1.602692E+002 -7.487747E-001  1.602391E+002 -2.054482E+001 -4.773376E+000
1115.0000     -2.247678E+001  1.370943E+002 -7.609910E-001  1.587761E+002 -7.578400E-001  1.587435E+002 -2.051234E+001 -5.770957E+000
1120.0000     -2.247915E+001  1.355957E+002 -7.692255E-001  1.572631E+002 -7.675000E-001  1.572311E+002 -2.049746E+001 -6.700562E+000
1125.0000     -2.246393E+001  1.339690E+002 -7.794626E-001  1.557263E+002 -7.772441E-001  1.556935E+002 -2.050090E+001 -7.702426E+000
1130.0000     -2.244216E+001  1.322219E+002 -7.900841E-001  1.541645E+002 -7.866971E-001  1.541344E+002 -2.050362E+001 -8.765496E+000
1135.0000     -2.244562E+001  1.304817E+002 -8.001315E-001  1.525985E+002 -7.967079E-001  1.525695E+002 -2.049978E+001 -9.883697E+000
1140.0000     -2.249058E+001  1.286831E+002 -8.090516E-001  1.510366E+002 -8.067210E-001  1.510012E+002 -2.049156E+001 -1.096016E+001
1145.0000     -2.256591E+001  1.270147E+002 -8.189077E-001  1.494521E+002 -8.158773E-001  1.494196E+002 -2.049544E+001 -1.199584E+001
1150.0000     -2.265624E+001  1.252915E+002 -8.283839E-001  1.478360E+002 -8.257663E-001  1.478059E+002 -2.052740E+001 -1.287343E+001
1155.0000     -2.276244E+001  1.236887E+002 -8.382201E-001  1.461931E+002 -8.355076E-001  1.461552E+002 -2.059288E+001 -1.371640E+001
1160.0000     -2.290468E+001  1.219859E+002 -8.482993E-001  1.445255E+002 -8.453522E-001  1.444930E+002 -2.065251E+001 -1.455036E+001
1165.0000     -2.307599E+001  1.201852E+002 -8.591998E-001  1.428570E+002 -8.564972E-001  1.428203E+002 -2.071090E+001 -1.557794E+001
1170.0000     -2.328246E+001  1.182227E+002 -8.709410E-001  1.411714E+002 -8.680334E-001  1.411347E+002 -2.079053E+001 -1.667533E+001
